#Digilent WaveForms Network Analyzer - Bode
#Device Name: Discovery2
#Serial Number: SN:210321B053D5
#Date Time: 2025-05-08 14:22:54.777
#Start: 10 Hz
#Stop: 22050 Hz
#Steps: 300
#Wavegen: Wavegen C1
#Amplification: 1 X
#Settle: 10 ms
#MinPeriods: 16 
#Channel: Channel 1
#Range: 5.43979 V
#Offset: -0.000262887 V
#Relative: no
#Channel: Channel 2
#Range: 5.43753 V
#Offset: -8.04338e-05 V
#Relative: yes

Frequency (Hz),Channel 1 Magnitude (dB),Channel 2 Magnitude (dB),Channel 2 Phase (deg)
10.00000000000001,-0.01616908588772137,-85.44124198260542,27.74600122326329
10.26081762452716,-0.01613238521636794,-85.02702937818898,23.8584824195831
10.5284378323807,-0.01578929927705636,-79.52685187934247,9.58203554565263
10.80303804692303,-0.01612487363128193,-82.14274369020963,0.2627988960650498
11.08480031903051,-0.01605529365533786,-77.69427217846746,19.11636581809462
11.37391144778724,-0.01613623776205047,-84.25404682865883,4.732635774183645
11.67056310432663,-0.01576218371140654,-79.50843618121164,8.076078104416666
11.97495195890309,-0.01581650264078293,-80.88493456365046,5.894957229420612
12.28727981127788,-0.01614570908268116,-81.30036861366122,12.63912019508317
12.60775372450566,-0.01628078896187877,-80.86863167195162,2.598359887766968
12.93658616221055,-0.01588180941508289,-78.33726732903595,14.68150451486119
13.2739951294424,-0.01655640209223027,-78.67839840824773,3.48868571831035
13.62020431720701,-0.01587804862128273,-78.37479759786572,1.090634534233184
13.97544325076584,-0.01616956322765916,-79.18591250959479,8.023421687365129
14.33994744180371,-0.0161362530422972,-82.04061392472917,18.16823304301666
14.71395854456524,-0.01609422687906406,-80.59817675132118,22.46700184508998
15.09772451606369,-0.01616229753963037,-82.20226335423364,6.962081589139586
15.49149978046817,-0.01585823991443461,-78.67620844735163,11.09110268157798
15.89554539777862,-0.01625000416720716,-79.93111252361348,-3.105006835734848
16.31012923689983,-0.01608596527657221,-78.914334145368,6.648165703994692
16.73552615322972,-0.01620119655102684,-79.35687893099669,-8.316998634321266
17.17201817087945,-0.01654022492217963,-78.12785310154199,14.97561820429108
17.61989466964603,-0.01615831097668597,-78.11290475678865,16.56528116080094
18.07945257686159,-0.01618547772707412,-79.09214844369284,11.88767664059708
18.55099656424642,-0.01636291986391755,-76.70026126753942,6.981786354599052
19.03483924989622,-0.016385797590269,-78.44627159664324,1.870768635070739
19.53130140553762,-0.01641027658845561,-79.40692185315235,9.898349104745165
20.04071216918922,-0.01631909314752568,-77.51492712538851,3.864551232302626
20.56340926336922,-0.01599685641399149,-77.33542944716915,14.05452981820889
21.09973921899439,-0.0161131761607914,-80.32195108143804,6.333437189787915
21.65005760511843,-0.01608079515303837,-78.26744849728459,-0.7271664254203642
22.21472926466272,-0.01619265842900184,-78.35048963156093,-5.242946134969884
22.79412855629502,-0.01579783530658345,-77.50089039625502,-9.660820111447002
23.38863960261695,-0.0161991156064093,-79.71831589760561,7.455157982777479
23.99865654482456,-0.0161990075193651,-77.32921809053634,6.637382976868153
24.62458380401096,-0.01607282045942248,-78.07005139940097,19.63364649121976
25.26683634928414,-0.01637719301693021,-77.36732969278842,-1.591622609310818
25.92583997287775,-0.01620131935353167,-77.50710286456793,3.413599992709479
26.60203157243745,-0.01643112185685583,-76.86050252641044,-1.823135309763742
27.29585944066938,-0.01664245667533075,-78.3226807527363,-4.200501559143326
28.0077835625436,-0.01618925608311166,-77.22911501426159,-11.23365111416599
28.73827592024891,-0.01636518329833431,-76.28948923558508,10.08839212856566
29.48782080610142,-0.01615153606037351,-74.83594696098962,4.087775270278371
30.25691514361437,-0.01618679365167499,-75.44826858385608,-5.298834646323499
31.04606881694206,-0.01639645280877975,-74.20033054450117,-8.021084810500284
31.85580500891618,-0.01637849776882887,-74.21443883066735,3.087252753586318
32.68666054789873,-0.01614940660102528,-73.92384759621555,0.6659052024477532
33.53918626368154,-0.01642537054132923,-74.72685996986789,1.974379792249536
34.4139473526682,-0.01648347208105452,-73.26362682820431,3.546516845654708
35.31152375258072,-0.01578818362211604,-74.90808203670358,0.4322038899960177
36.23251052693892,-0.01595475601101053,-73.71582467744332,2.609929714761318
37.17751825956803,-0.01625935195066049,-74.16206803987274,-3.33444096740746
38.14717345939555,-0.0165291620960552,-72.63818945025001,-8.597117668950176
39.142118975806,-0.01624440872078796,-70.70031753103969,-5.704022187164725
40.16301442482887,-0.01629230129004098,-71.94094164508128,-4.950811788764
41.21053662644221,-0.0159104939485882,-72.23681433180093,-3.781646451957528
42.28538005328197,-0.01630355446707461,-70.64415079637315,-2.64698725631024
43.38825729105443,-0.01649746760397242,-71.36742415198982,-8.558182507349159
44.51989951095698,-0.0160042500214151,-70.42516112400433,-7.078256285798915
45.68105695442048,-0.01633835916235223,-70.00541834428711,-8.172037797554822
46.87249943049456,-0.01652575468073036,-70.21327097931088,-5.695347430974564
48.09501682620572,-0.01679599101764182,-70.02110460504584,-4.383134882549257
49.34941963022613,-0.01628386542768535,-68.94480592506299,-6.07966253351097
50.63653947020102,-0.01652908611615724,-68.95566227754298,-12.97370349948919
51.95722966409031,-0.01612896669524921,-68.0122923855571,-10.40125575368209
53.31236578589026,-0.01675447091472078,-68.1845207653992,-11.52868394746235
54.70284624611008,-0.01651602332186839,-67.76967972143194,-9.018562637138633
56.1295928873885,-0.01681337074045917,-68.5402995664606,-13.45260064879581
57.59355159564495,-0.01647242273093014,-67.79836506427927,-12.20072981258545
59.09569292717072,-0.01633221758566838,-66.31503227971825,-14.15776645926756
60.63701275207576,-0.01599081342791432,-66.40141916492412,-15.59902757901446
62.21853291451763,-0.0163816099474893,-66.14178209408691,-16.3766170750998
63.84130191015049,-0.01615644799199735,-65.55940761473236,-13.01034120708404
65.50639558124307,-0.0164650584081999,-65.08572228543638,-16.47016659702575
67.21491782992661,-0.01684505081974498,-64.769703029315,-17.2507604031393
68.9680013500455,-0.01637431492265619,-64.81808872827978,-18.12503917764342
70.76680837809589,-0.01632004198584446,-64.61995932363041,-18.89423784979799
72.61253146375016,-0.01640764523618878,-63.71398783354841,-22.74075645862344
74.50639426047796,-0.01643426533681992,-63.55159922230266,-22.57557151573982
76.44965233678805,-0.01605094678127296,-63.18294169703179,-24.43248212871804
78.44359400862869,-0.01648305029026657,-62.63615366409526,-23.81255444608566
80.48954119349894,-0.01664969511343631,-62.41336192267195,-24.39537133886384
82.58885028683578,-0.01673058088716498,-61.7270623088266,-25.50463005901091
84.74291306125984,-0.01669784651976635,-61.56269497608989,-25.52508906220582
86.95315758927465,-0.01643215683506419,-61.1333412591746,-26.38518770974285
89.22104919003159,-0.01629527369089567,-60.37825104054542,-27.22692590458983
91.54809140078797,-0.01641577021107399,-60.11950161617199,-31.89825220000554
93.93582697370272,-0.01651156885450243,-59.86152870320781,-31.11588492646402
96.38583889863014,-0.01659287641735716,-59.63888720502786,-32.62087006237209
98.89975145258984,-0.01660969655671806,-58.84756566177647,-31.78615042427158
101.4792312766088,-0.01613977453840953,-58.38033288351838,-33.28161665474268
104.1259884806493,-0.01679573722495056,-58.07058415507953,-36.40202012416086
106.8417777773557,-0.01701382205944827,-57.73245294704091,-36.95300123127761
109.6283996453704,-0.01672375535712707,-57.32744733820812,-37.19272100997203
112.4877015229923,-0.01626706248784669,-56.84559293788406,-38.24076746013534
115.4215790329668,-0.01661852151747687,-56.45294643825041,-40.15680262947103
118.4319772392219,-0.01645208317655128,-56.02870997259625,-42.57662693915805
121.5208919363806,-0.01614897103545868,-55.717763394511,-42.60688458724844
124.6903709729073,-0.01636890041405521,-55.14071814927591,-43.39332488497612
127.9425156087635,-0.01630228769657474,-54.6292218183513,-44.79284739249337
131.279481908474,-0.01647253640312768,-54.1282033847591,-47.62195037700683
134.7034821705263,-0.01647938392523096,-53.72484984670769,-48.03481014597285
138.2167863940513,-0.01701690378622872,-53.29833596964241,-49.76876082096229
141.8217237837585,-0.01643901528413451,-53.0224770408714,-52.18056614627147
145.520684294121,-0.01631692906644491,-52.48211376824841,-53.08902094185059
149.3161202138368,-0.0159994253687154,-52.15374231307679,-54.99801419502636
153.2105477916151,-0.01666777159923429,-51.67749762740993,-56.46676806045284
157.2065489043662,-0.01696066429125889,-51.26367880332942,-58.35864152615477
161.306772768901,-0.01626692869831373,-50.94314665336235,-60.16162114139433
165.5139376982735,-0.01598468036816228,-50.38067771233838,-61.4224142697054
169.8308329039333,-0.01692891366925106,-49.8712833209948,-63.29674508625274
174.2603203448803,-0.01630174380008876,-49.50309147062172,-64.46629165979849
178.8053366250495,-0.0155898537906104,-48.97169626073686,-66.71297473673879
183.4688949401815,-0.01695756827441619,-48.68363404490444,-68.63435868106397
188.2540870754734,-0.01598194564079654,-48.12725262914032,-70.70265972737705
193.1640854553285,-0.0157002213921825,-47.7600085531451,-72.4520892497562
198.2021452465703,-0.01676811597088089,-47.32052956754133,-74.27382450531739
203.3716065165098,-0.01723911974529665,-46.81509394675628,-77.07054359993992
208.6758964473003,-0.0164726652109807,-46.37483007632562,-78.85774623347127
214.1185316080461,-0.01612777152037959,-45.98159479889339,-81.25406440513177
219.7031202861713,-0.01674794232798879,-45.55221681308755,-82.96209613615063
225.4333648795952,-0.01609825861615949,-45.07546375843297,-85.70470587439073
231.313064351301,-0.01657361080855398,-44.66877248201151,-87.99551679297122
237.3461167479212,-0.0164989230505244,-44.23755971508151,-90.23052402718929
243.5365217840147,-0.01645910620391034,-43.77318439668497,-93.28965354934058
249.8883834937457,-0.01610120300010513,-43.35267944375776,-95.62531068839816
256.4059129517225,-0.01611079409349311,-42.86124914664117,-98.08864139669122
263.0934310648006,-0.01622810056241291,-42.4437767856239,-100.5112008446114
269.9553714367024,-0.01639209654093596,-42.02888669761843,-103.5076712089433
276.9962833073488,-0.01656791015456262,-41.50391620402626,-106.750727951859
284.220834568856,-0.01683911508058536,-41.09315863348925,-109.2049687500244
291.6338148601932,-0.01694916434357747,-40.69660678595603,-112.3287345543815
299.2401387425555,-0.01611167696373772,-40.21660011852675,-115.3892827694712
307.0448489575563,-0.01639790869123584,-39.76230833953809,-118.3305120108981
315.0531197703969,-0.01667015988932651,-39.30635077409068,-121.735371338172
323.270260400235,-0.01680036502414984,-38.85646049004873,-124.7254634997561
331.7017185400212,-0.01656235121890404,-38.45294419771764,-128.4666284767954
340.3530839681392,-0.01687289592853706,-37.98499532703982,-131.7314833321382
349.2300922542453,-0.01632724748010455,-37.51061809197128,-135.1685157028646
358.3386285617601,-0.01642462381858683,-37.08084427059381,-139.1188402425874
367.6847315495395,-0.01663104125202677,-36.60746546097385,-142.4192570621357
377.2745973753047,-0.01644666615220724,-36.20131750646934,-146.4083674631044
387.1145838034908,-0.01654957718175386,-35.73629851180113,-150.245973304174
397.211214420235,-0.01636393933516913,-35.30056756636711,-154.3514954063107
407.5711829582978,-0.01652880813231299,-34.82905557910955,-158.4459915072113
418.2013577347881,-0.0165009541407602,-34.39636090305957,-162.6420555008516
429.1087862046296,-0.01672144538056632,-33.94108848757055,-166.8756508932199
440.3006996327912,-0.01631412749558124,-33.5125010733131,-171.2025572241192
451.7845178883777,-0.01630562028952117,-33.0597604351651,-175.8216227533117
463.5678543637566,-0.01622023870467956,-32.61260190875531,179.5578552554846
475.6585210219867,-0.01737136204004239,-32.15742491566678,174.7642644685647
488.0645335758918,-0.01638223890283924,-31.70682787031362,169.8169437973374
500.7941168022132,-0.01638679979187946,-31.25822375630749,164.8622576505383
513.8557099943653,-0.01609973416654992,-30.81592673264664,159.7158270034509
527.2579725574093,-0.01651099526213799,-30.36307423391437,154.4452371937448
541.0097897489517,-0.01632032851099385,-29.91725290649961,148.9777284926924
555.1202785697769,-0.01593024465487557,-29.4501737622707,143.5192035924434
569.5987938081187,-0.01622286645966794,-29.01348128906883,137.7226677095161
584.4549342415745,-0.01600206829487512,-28.55711971579797,131.875251276813
599.6985490007802,-0.01647080487282646,-28.11435460598319,126.002952793779
615.3397440990561,-0.01638477086537878,-27.66464947224443,119.8381802163163
631.388889132362,-0.01590366781221684,-27.21171586543372,113.4566985921037
647.8566241539957,-0.0159889462264876,-26.76357381860458,106.9837337057923
664.7538667285978,-0.01687090402938538,-26.31457481601333,100.3918999800882
682.0918191701363,-0.01741633004230301,-25.86860205174228,93.54861822906884
699.8819759686719,-0.01588049564290873,-25.42119879067217,86.48563490550526
718.1361314108232,-0.01597357551709844,-24.97958449667133,79.3766786213571
736.8663873989918,-0.0173355196731397,-24.52372066925619,72.04069985123172
756.0851614745224,-0.01562828151346539,-24.08418704042776,64.48538904872015
775.8051950501228,-0.01661032884742736,-23.62660218981645,56.72644841090333
796.039561857002,-0.01572471481344467,-23.18139187910152,48.78920705695401
816.8016766123195,-0.01637117590368205,-22.73730926601229,40.60575511067692
838.1053039127012,-0.01521609952182867,-22.292429662739,32.25177555423245
859.9645673597124,-0.01590083268058624,-21.84720597838268,23.63098268827595
882.3939589233399,-0.01557134794750619,-21.40074855456014,14.86509949413541
905.4083485496894,-0.01598182648428911,-20.94958773943108,5.815721226019491
929.0229940192671,-0.01644128057861639,-20.51345518710258,-3.467431229339843
953.2535510623874,-0.01534991642447583,-20.06620822100364,-12.99322928600235
978.1160837384033,-0.01643834100374212,-19.62078847227555,-22.81970614835299
1003.627075085647,-0.01462515116503506,-19.17988386620699,-32.81977518043603
1029.803438049144,-0.01419931436215819,-18.73070698165523,-43.16438791300618
1056.662526693331,-0.01545682309628135,-18.29740961306299,-53.71821937081199
1084.222147707231,-0.01508632809449053,-17.85643886408472,-64.56519629652287
1112.500572209703,-0.01556768573558523,-17.41287375200532,-75.74250087211813
1141.516547862585,-0.01658433189596665,-16.97404439597441,-87.18550760679246
1171.28931129978,-0.01637313526937208,-16.53732824329842,-98.92733606354136
1201.838600880505,-0.01559485539573545,-16.09937053169517,-110.99511246726
1233.184669775173,-0.01550010474185075,-15.65948474516758,-123.4198888124773
1265.348299392579,-0.01548558405761944,-15.22520898395134,-136.0965580407899
1298.350813157283,-0.01475847923661194,-14.78711577999974,-149.1384304424122
1332.214090646339,-0.01637997491565342,-14.35274521641729,-162.5059020810562
1366.960582094736,-0.01697991387525328,-13.92286747048742,-176.2820510963377
1402.613323279155,-0.01638908616358106,-13.48731333140267,169.639438943553
1439.195950789935,-0.01452250901856493,-13.05682723806015,155.1540611306164
1476.732717701347,-0.0147794088903111,-12.63159590945076,140.2763312572275
1515.248509650585,-0.01388741035789507,-12.20759946541858,125.030925152734
1554.768861336121,-0.01546311719977734,-11.78110399888105,109.3708124900843
1595.319973446367,-0.01368271440136433,-11.35701822580768,93.2845346612211
1636.928730029867,-0.01292104686563382,-10.93745130514804,76.80479466757706
1679.622716318529,-0.0137213372670444,-10.52222571787637,59.87059537895345
1723.430237015732,-0.01413504914463628,-10.1124998812227,42.51512454657721
1768.380335061402,-0.01298322303757271,-9.703391206992332,24.65806928005043
1814.502810886525,-0.01355540438916307,-9.301075550525885,6.351266293577897
1861.82824216985,-0.01375818429301955,-8.901403903648678,-12.4264013566156
1910.38800410988,-0.01389735548042552,-8.507270538388742,-31.69893734271889
1960.21429022559,-0.01368783905661258,-8.119153399043963,-51.47807691313341
2011.340133699669,-0.01189822437027981,-7.736089881477538,-71.79524253307022
2063.799429278435,-0.01348449259436072,-7.35956902090265,-92.61135423533244
2117.626955742923,-0.01286430484820253,-6.992279959020023,-113.9876558251731
2172.858398966076,-0.01198730413661882,-6.631866871406943,-135.9156977275837
2229.530375571294,-0.01179251344862924,-6.274309238153045,-158.4164846335528
2287.680457208056,-0.01147972146431488,-5.9272996000223,178.5148745574199
2347.347195460674,-0.01183446947450545,-5.590670073966587,154.8595168556517
2408.570147406725,-0.01179760953787474,-5.261562878525408,130.5810278743829
2471.389901842088,-0.01091502136778423,-4.942070757007173,105.6959271710126
2535.848106189971,-0.01111932352673124,-4.634266510980994,80.1830064966193
2601.987494111783,-0.0104805069746307,-4.335574879945693,54.03133773154588
2669.851913838141,-0.01072183546235068,-4.046004034589221,27.22888170649099
2739.486357238793,-0.008903254693007239,-3.768572930070305,-0.2348616657726268
2810.936989650747,-0.007890010908555933,-3.506069789826677,-28.38098390344478
2884.251180484367,-0.00910568749235832,-3.252353231648001,-57.22072047445567
2959.477534627721,-0.009665151529403136,-3.010229429410285,-86.7614667197314
3036.665924670026,-0.007810235394133939,-2.780823821142906,-117.0452034352749
3115.867523965523,-0.009231663755744008,-2.562062442024201,-148.0473188969492
3197.134840559719,-0.008171251814489314,-2.356154108325793,-179.7943735022437
3280.521752000499,-0.008402009513368836,-2.161332298096907,147.686732729122
3366.083541057139,-0.008244846550870245,-1.977314091028108,114.3833879388628
3453.876932370983,-0.006948861398839063,-1.806278200694989,80.27550686626449
3543.960130061993,-0.006327716158497624,-1.645047101863564,45.36426343887553
3636.392856316162,-0.00601260307977193,-1.494038905723537,9.631550365587401
3731.236390979348,-0.003983963665912039,-1.353475611547042,-26.98185596998182
3828.553612183795,-0.006021932691828995,-1.221231811775006,-64.4260745616688
3928.409038034256,-0.005410415183405132,-1.10048910380229,-102.8074959157159
4030.868869381363,-0.004873673881126223,-0.9869469386473246,-142.0907972574908
4136.00103371061,-0.003131419537213479,-0.884793272593552,177.7188335169079
4243.875230176031,-0.006995701351096799,-0.7877282264344405,136.5408129959647
4354.562975808441,-0.00367493825497167,-0.7000969145865781,94.39302226014684
4468.137652928864,-0.001210815884635199,-0.6211664431086251,51.20851090722196
4584.674557798584,-0.001324473685376132,-0.5456086473338472,7.010556133703439
4704.250950538089,-0.001214210901502563,-0.4795891283200465,-38.26250573986434
4826.946106347982,0.0004803599251972418,-0.4197318133140862,-84.62095061806043
4952.841368065806,-0.001002888937933717,-0.36461685267458,-132.098920849194
5082.020200093675,7.249362735965579e-05,-0.3153874186974086,179.2391403327259
5214.568243732416,-0.0005606228575943011,-0.2696884271125,129.3995807806111
5350.573373958914,0.002811218643372681,-0.2319835064410717,78.35185979316468
5490.125757684329,0.004151859058197835,-0.194558540531191,26.04162856680622
5633.317913531782,0.002672323874664766,-0.1604619173906946,-27.52934048060191
5780.244773173139,0.004173662249035585,-0.1292287531868419,-82.43279336025324
5931.003744265586,0.002564227906931615,-0.1008033323613185,-138.6815287476582
6085.694775029682,-0.005143267802584709,-0.07725111439938262,163.627277097073
6244.420420511732,0.002573361414706397,-0.05434724781409617,104.5332944474048
