#Digilent WaveForms Impedance Analyzer
#Device Name: Discovery2
#Serial Number: SN:210321B053D5
#Date Time: 
#Digilent WaveForms Impedance Analyzer Trace#Trace: Trace
#Start: 10 Hz
#Stop: 50000 Hz
#Steps: 151
#Order: W1-C1-DUT-C2-R-GND
#Resistor: 1e+06 O
#Average: 1
#ProbeResistance: 1.04e+06 O
#ProbeCapacitance: 4.3e-11 F
#Compensation:none
#Wavegen: Wavegen1
#Amplitude: 1 V
#Offset: 0 V
#Amplification: 1 X
#Settle: 0.01 s
#MinPeriods: 16
#Scale: Logarithmic
#ScopeC
#SChannel: 1 
#Range: 5.43979 V
#Offset: -0.000262887 V
#Attenuation: 1 X
#ScopeC
#SChannel: 2 
#Range: 5.43753 V
#Offset: -8.04338e-05 V
#Attenuation: 1 X

Frequency (Hz),Trace th (deg),Trace |Z| (Ohm)
10,-0.01584512731345896,755826.7474310045
10.58424294923851,-0.04996633491966108,755458.0534262178
11.2026198808505,-0.02884099098575656,755223.4011889795
11.85712504868911,-0.03532071236948386,755268.1830117315
12.54986921948269,-0.02698711939649705,755478.9201418335
13.28308648001751,-0.04921881715657966,755437.158631746
14.05914144202507,-0.02950685213003084,755580.26839706
14.88053686801006,-0.03853723290884049,755613.3963554464
15.74992174261191,-0.04892908934349589,755650.6195326023
16.67009981552986,-0.05448669144956707,755659.9536198695
17.64403864356239,-0.05118908043905754,755544.8439443419
18.6748791609217,-0.03944260203859806,755546.8651117746
19.76594580868665,-0.04158570161680759,755651.8806128979
20.92075725606221,-0.05333312704856547,755411.3481079891
22.14303774802068,-0.05191091507492302,755481.2927719274
23.436729115921,-0.04765051649838049,755579.0393705823
24.80600348983997,-0.05118039250451946,755565.2075298314
26.25527675361243,-0.04802417695319752,755468.7378138865
27.78922278597281,-0.07506595273062099,755400.2828703756
29.41278853372508,-0.06487827019313605,755504.7407280054
31.13120996555226,-0.07960513632813852,755506.6756993398
32.95002895791605,-0.096100290223211,755631.7933049798
34.87511116750276,-0.08328105060016772,755534.7133477285
36.91266494785499,-0.0936715472650278,755446.6724256905
39.06926137119375,-0.09956507067400854,755592.6124890454
41.35185542000135,-0.1068330791801647,755564.0751505424
43.76780841670799,-0.09707105851873915,755373.2132914501
46.3249117638163,-0.1321443857178028,755743.5022489546
49.03141207102686,-0.1303027344837845,755503.2672195396
51.8960377503974,-0.1466882866236619,755210.9963149561
54.92802716530586,-0.1617700876543238,755320.7168226287
58.13715842399698,-0.1902297295358023,755336.5589721289
61.53378091379528,-0.1844994764024879,755402.5049405668
65.12884867768241,-0.1771716864495919,755770.3677352725
68.93395574087819,-0.1490317514547611,755465.9288042752
72.96137350135093,-0.1845041412008285,755650.2119857369
77.22409030484302,-0.2083306341781755,755557.6635416365
81.73585333203927,-0.1905030643818084,755686.0009767828
86.51121293296302,-0.2331063871545547,754929.2135613977
91.56556955157842,-0.2336882128822695,755362.7799783807
96.91522339193011,-0.2445949899661476,755298.2382524329
102.5774269859912,-0.2230854474731081,755736.248860053
108.5704408327505,-0.3248884686140729,755855.5852057941
114.9135922879754,-0.2839700243098709,755160.4845682301
121.6273378945674,-0.2880412919331907,755933.3225644322
128.7333293545225,-0.3146566069528043,755607.1940145219
136.2544833552602,-0.329546340644789,754748.078334276
144.2150554755048,-0.3537184048876469,755332.812357872
152.6407184090652,-0.3923362765675891,755505.4131840711
161.5586447587848,-0.4029354915090751,755789.4165365752
170.9975946676697,-0.4240415459353422,755506.413019576
180.9880085698029,-0.4442843747035765,755853.0305216715
191.5621053601653,-0.4635543860774793,755434.5724526602
202.7539862999612,-0.4879250324567512,755237.0810613512
214.5997449925365,-0.5573586082628568,755829.8796024811
227.1375837845639,-0.5584296764707716,755569.2858782965
240.4079369678839,-0.5702007002173823,755356.6042429401
254.4536011793301,-0.6406151957948454,755180.3887388855
269.3198734190672,-0.6755426857661383,754532.7476101666
285.0546971325567,-0.7049940184954223,755013.8154566162
301.7088168272581,-0.7565864722316793,755005.6802906854
319.3359417227003,-0.8160216011719031,755092.8068475486
337.9929189616926,-0.7976556667988021,754405.4104038702
357.7399169412834,-0.8857147240091006,755041.7121880928
378.6406193546952,-0.8956496938858562,754977.0338097337
400.7624305700231,-1.004355258163505,755780.8296170047
424.1766930080449,-1.09075045943922,754501.3457199173
448.9589172201711,-1.083754011826291,754506.0479228216
475.1890254085353,-1.21692872126804,754760.8715524947
502.9516091735803,-1.2340087870316,754845.6660206758
532.3362023203628,-1.347964728548228,754574.2804348074
563.4375696033708,-1.404540262537232,754102.111972044
596.3560123410552,-1.558452347471218,754740.8942033494
631.1976918856806,-1.603714833271292,753562.3234720434
668.0749719916639,-1.662596940989809,754345.670875891
707.1067811865476,-1.744779824222012,753650.0611728057
748.4189963132453,-1.86864155119979,753696.4551994214
792.1448484804624,-1.978417433658534,753488.6402182371
838.4253527304941,-2.061201900521146,753002.2340115799
887.4097628100533,-2.2307462702603,752992.3848092012
939.2560525107727,-2.337362478090931,752629.7634404215
994.1314251316742,-2.432805482958874,751935.4017299979
1052.212852706634,-2.601153746630633,751538.6497162263
1113.687646735833,-2.703468266557607,751007.7743427005
1178.754062261777,-2.87288854155062,750740.443446037
1247.621937238045,-3.036635895563654,750603.1162467721
1320.513369252708,-3.199118547752994,749247.7121974973
1397.663431788814,-3.392004606427103,748084.0834011065
1479.320932331926,-3.595279122407404,748473.3400844254
1565.749214769513,-3.790186404451583,747053.4638662395
1657.227008669993,-3.982414413926943,745751.9839943433
1754.049328180301,-4.197649168816124,745143.1521944473
1856.528423440887,-4.407321823323534,743594.2569680328
1964.994787586509,-4.720426533674888,742523.2663688665
2079.798222580294,-4.901130932704072,740891.9944209085
2201.308967318424,-5.160219919839934,739442.7613562493
2329.918891643553,-5.440569536635184,737479.9448727462
2466.042760117587,-5.748430451814031,735381.6980958862
2610.119569629524,-5.999159738945758,733319.3282274803
2762.613965152073,-6.290104471019743,731243.6527751504
2924.017738212866,-6.649645685138983,728800.3669449773
3094.851412912785,-6.909282548947247,725160.4336964004
3275.665924606298,-7.221164408945548,722173.4071542424
3467.044396657504,-7.545871350671517,719255.713883862
3669.604021001906,-7.821081949789276,714281.3112766048
3883.998048578666,-8.16766400636994,710987.1126113908
4110.91789605249,-8.501023700739935,706442.8693499307
4351.095375619197,-8.815481212553951,702082.5275930003
4605.305055086172,-9.11646714849384,697058.2445853417
4874.36675583883,-9.397066211678631,691599.9851071298
5159.148196748966,-9.718998496495464,686060.145573153
5460.567792551683,-9.943220533586299,680567.1019295487
5779.597615715405,-10.2132879539034,674388.9425500593
6117.266531357141,-10.47333587759022,668063.8651533518
6474.663515312955,-10.64312461105114,661890.9060600057
6852.941166064297,-10.86225739804756,654950.5750507099
7253.319421846229,-10.97921974248854,648997.4958002099
7677.08949492507,-11.10304481410128,641517.7173320676
8125.618035733363,-11.19471308521524,634844.7600564074
8600.351540291613,-11.28644752924581,627893.8484994072
9102.821015130405,-11.28376324264915,621094.9659257508
9634.646914757404,-11.29002041187572,614656.2304110385
10197.54436759236,-11.22909336030533,607920.6233460119
10793.32870722362,-11.17369989008341,601614.6068402677
11423.92132682452,-11.0501175673833,595111.5273624557
12091.35587560979,-10.92598969168831,588998.5538624314
12797.78481731564,-10.78312025230001,583160.1544005222
13545.48637185448,-10.56906911252621,577539.7733762108
14336.87186253071,-10.32933789884813,572704.9441783478
15174.49349251265,-10.19752864543186,566768.4963059892
16061.05257563926,-9.877380933252994,562374.9578067707
16999.40824810587,-9.628161543636148,557834.4696223999
17992.58668912415,-9.35044101928473,553539.6764661577
19043.7908802925,-9.031407569424879,549505.9243702429
20156.41093515083,-8.741591950273209,545744.8267664069
21334.03503223242,-8.480609310277103,542369.3985811142
22580.46098687132,-8.214079038470796,538881.9919426651
23899.7084990848,-7.947869274570384,536066.646458202
25296.0321170294,-7.654274282415615,533556.0603538044
26773.9349578379,-7.391200592774865,531058.2981931807
28338.18323008663,-7.106374000832288,529870.7838274294
29993.82160472731,-6.757372835440967,531031.9884244704
31746.18948405528,-5.96278150032954,523047.788621256
33600.93822118018,-6.821216297743498,521856.9700055122
35564.04934553248,-6.229242744917751,520251.2748726686
37641.85385318225,-5.697701395543962,521480.1691459706
39841.05262418107,-4.886656747902734,519345.2740469076
42168.73803277285,-4.967128670403098,514708.5660690079
44632.41682016619,-5.319421796534465,516708.404124287
47240.03430363178,-4.814752293351682,514549.7108163036
50000,-4.599724280573104,512066.3561127695
