#Digilent WaveForms Impedance Analyzer
#Device Name: Discovery2
#Serial Number: SN:210321B053D5
#Date Time: 
#Digilent WaveForms Impedance Analyzer Trace#Trace: Trace
#Start: 20 Hz
#Stop: 18400 Hz
#Steps: 501
#Resistor: 100000 O
#Average: 1
#ProbeResistance: 1.04e+06 O
#ProbeCapacitance: 4.3e-11 F
#Compensation:none
#Wavegen: Wavegen1
#Amplitude: 2 V
#Offset: 0 V
#Amplification: 1 X
#Settle: 0.01 s
#MinPeriods: 16
#Scale: Logarithmic
#Channel: Channel 1
#Range: 5.43971 V
#Offset: 0.000245756 V
#Attenuation: 1 X
#Channel: Channel 2
#Range: 5.43745 V
#Offset: -0.000288559 V
#Attenuation: 1 X

Frequency (Hz),Trace th (deg),Trace |Z| (Ohm)
20.00000000000001,-0.1034683774516357,118477.5372398381
20.27484633417982,-0.1046435657195776,118471.7443976005
20.55346969373021,-0.1062972052149523,118471.7041933032
20.83592198373008,-0.1072876470988519,118491.2681106611
21.12225582255432,-0.108264248761551,118501.5247295914
21.41252455167616,-0.1108327801501003,118495.9618569164
21.70678224560433,-0.1122547448897431,118498.9179262706
22.00508372195651,-0.1133814592904147,118470.2086251881
22.30748455167146,-0.1130636157792419,118450.4854079611
22.61404106936144,-0.1159759349058553,118401.8848208116
22.92481038380673,-0.1179448348700237,118403.5494310552
23.23985038859453,-0.1191795452565208,118397.94875835
23.55921977290415,-0.1195251105254076,118403.7559101506
23.8829780324401,-0.1221817304581881,118411.7431453359
24.21118548051573,-0.1235270151274659,118428.1692950986
24.5439032592891,-0.1257754359701412,118437.1779205411
24.88119335115307,-0.1272201356467,118455.4021643629
25.22311859028221,-0.1289326236712702,118427.8639216799
25.56974267433829,-0.1311182297779558,118418.6204555333
25.92113017633644,-0.1319807875221266,118428.9684637107
26.2773465566746,-0.1340845837049656,118450.1948810603
26.63845817532832,-0.1346390288663037,118461.7656109555
27.00453230421288,-0.1386428722436518,118446.4985064976
27.37563713971551,-0.1383957043616976,118455.3739392334
27.75184181539988,-0.1410328659313201,118483.6858376938
28.13321641488491,-0.1395544884527868,118529.0112851199
28.5198319849008,-0.1446076364975357,118504.7435348016
28.9117605485245,-0.1461901167516947,118509.2494824637
29.30907511859682,-0.1493477109507461,118525.7427230314
29.71184971132414,-0.1490012474907679,118552.3193246797
30.12015936006708,-0.1519735431858005,118568.448208547
30.53408012931839,-0.1548444583701062,118608.7749335916
30.95368912887314,-0.1553651615622944,118678.9534522013
31.37906452819375,-0.1581122174931907,118556.9701553583
31.81028557097203,-0.1612409340460006,118590.3432620134
32.24743258989172,-0.161152533391757,118626.8378006402
32.69058702159381,-0.166000667217765,118673.1425254301
33.13983142184736,-0.1668023845786165,118673.5632530371
33.59524948092894,-0.1705892027436918,118570.1952451404
34.05692603921337,-0.1727115313199938,118582.0071332714
34.52494710297891,-0.1746461860001994,118595.7437665705
34.99939986042919,-0.1776692454016338,118608.2471572326
35.48037269793576,-0.1790398364805117,118528.8220588026
35.96795521650382,-0.1804709452005269,118512.766879496
36.4622382484638,-0.1831572563319303,118511.0013546196
36.96331387439282,-0.185911141941364,118548.7348459649
37.47127544026854,-0.1891723729360669,118544.6696326685
37.98621757485852,-0.1916421137492168,118537.5761271301
38.50823620734881,-0.1935647924858133,118549.799732377
39.03742858521481,-0.1965983916086797,118556.3597221436
39.57389329233743,-0.1980467562428239,118547.3444193916
40.11773026736849,-0.1980232667061442,118545.6657511193
40.66904082234851,-0.2028825139743554,118554.5286524445
41.22792766158008,-0.2149424269074371,118517.558321549
41.79449490076083,-0.2018963563671796,118584.8714681447
42.36884808637937,-0.1741478800065624,118547.6147953558
42.95109421537749,-0.2590802051969294,118598.2623469208
43.54134175508285,-0.2691639886977948,118419.4706021027
44.1397006634156,-0.2615224393689101,118343.3903444339
44.74628240937228,-0.3294684117358668,118591.4861094994
45.36119999379176,-0.1560364135698356,118306.2886326095
45.9845679704063,-0.3714696146575808,118542.9378092244
46.61650246718172,-0.3387801140566761,118731.7188789479
47.25712120795112,-0.3925892572783253,118499.2928257097
47.90654353434594,-0.389383539925815,118604.5846661659
48.56489042802795,-0.09152128572311836,118616.668611577
49.23228453322729,-0.2165033380239441,118183.3164559958
49.90885017959003,-0.386629205278208,118344.1239474835
50.5947134053395,-0.0963769429666437,118442.5440436926
51.29000198075624,-0.10270827983145,118620.3984605284
51.99484543198054,-0.3353607716169333,118235.239940994
52.70937506514182,-0.4207431471614672,118509.5803975195
53.4337239908199,-0.3933889507660364,118332.2957134935
54.16802714884253,-0.1250103153415651,118414.342874411
54.91242133342312,-0.1394891726011994,118470.2777959823
55.66704521864449,-0.2345276786266343,118100.4635132719
56.43203938429279,-0.3420177930257788,118146.7047286233
57.20754634204597,-0.3884849371654663,118396.831392957
57.99371056202255,-0.3554472588603805,118233.8933756013
58.79067849969539,-0.2489687834055972,118472.5903767354
59.59859862317463,-0.2674387762341486,118239.3484540267
60.41762144086624,-0.3049835816049118,118454.0757627926
61.24789952951052,-0.3375804085249522,118377.718980976
62.08958756260548,-0.3299101391290511,118379.6104167173
62.94284233922134,-0.320662239132073,118317.681247469
63.80782281321097,-0.3042310442003027,118342.2009960948
64.68469012282118,-0.314716027601238,118350.2761738739
65.57360762071183,-0.3285713942569506,118358.4058256183
66.47474090438672,-0.3299496723986989,118370.8250883741
67.38825784704289,-0.3353979917786552,118365.0322975997
68.314328628844,-0.3381296921785598,118358.6534788717
69.25312576862362,-0.3435146976260993,118363.3644416517
70.20482415602359,-0.3463914435420267,118564.4343391579
71.16960108407459,-0.3507889537935561,118410.6479516955
72.14763628222444,-0.3578775456324888,118409.006858314
73.13911194981982,-0.3614314890881742,118393.5016247764
74.14421279004848,-0.3657681173297202,118383.5860224709
75.1631260443481,-0.3710853691602818,118404.7409579667
76.19604152728729,-0.3785227863484359,118406.1120235708
77.24315166192659,-0.3813761735731145,118416.7074139394
78.30465151566537,-0.3856820956306707,118390.3885306124
79.38073883658078,-0.391292644092765,118415.5176323369
80.47161409026664,-0.3985721266645166,118409.1961603735
81.57748049717875,-0.4021858511280317,118401.3071472735
82.69854407049247,-0.4075466443087449,118464.1081846941
83.83501365448149,-0.4127447234391569,118399.0476098462
84.98710096342391,-0.4165193405997655,118431.5197680182
86.15502062104224,-0.4226008296787782,118451.4288698413
87.33899020048611,-0.4292409458876407,118461.0458261049
88.53923026486461,-0.4358064467360682,118460.8563653788
89.75596440833461,-0.441211062313298,118444.076791489
90.98941929775472,-0.4454648786796784,118456.4918465549
92.23982471491159,-0.4538840836487503,118455.4427048332
93.50741359932566,-0.4567306523260691,118451.2384251607
94.79242209164606,-0.4684990179044715,118459.1247862402
96.09508957764176,-0.4727101605859237,118455.80187497
97.41565873279653,-0.4778407763071796,118472.0328687142
98.75437556751744,-0.4815736719504901,118470.0468764633
100.1114894729649,-0.4878229275297591,118464.6251848057
101.4872532675111,-0.4979614222683408,118472.8676003832
102.8819232438387,-0.5005246993049925,118475.5452414772
104.2957592166855,-0.5090601848739758,118480.6894594355
105.7290245712458,-0.5154745465120018,118490.9357585853
107.1819863122364,-0.5226454574297486,118485.6046445003
108.6549151136379,-0.5307808423877007,118497.2196269374
110.1480853691179,-0.5380275037620693,118489.0835321444
111.6617752431492,-0.5417525937336449,118488.2927518827
113.1962667228286,-0.5508602536570123,118494.6102553036
114.7518456704091,-0.5573844664154245,118496.6120276033
116.3288018765529,-0.5652933127830706,118485.1634443126
117.9274291143179,-0.5728435146892499,118490.2776511859
119.5480251938839,-0.578375548399654,118508.8513957466
121.1908920180325,-0.5897512260806751,118511.5822641516
122.8563356383894,-0.5961027243719638,118513.1708052826
124.5446663124381,-0.605150590678591,118522.5864572659
126.2561985613191,-0.6140607983337949,118535.7975098461
127.9912512284219,-0.621697609685124,118547.2559579134
129.7501475387828,-0.6286444667783971,118543.3482760797
131.5332151592989,-0.6375241685410783,118537.9585787619
133.3407862597697,-0.64744528916734,118543.0943791012
135.1731975747773,-0.6516551571426028,118549.6871575744
137.0307904664167,-0.6599916167071458,118562.7674668988
138.9139109878895,-0.671996863071043,118565.3511434702
140.8229099479696,-0.6826845572723437,118563.9914019629
142.7581429763561,-0.691140499203297,118565.0083663048
144.7199705899245,-0.696729386155121,118572.8352554339
146.708758259887,-0.70479218283224,118516.4961274647
148.724876479877,-0.714648200035602,118522.0706444669
150.7687008349689,-0.7260260149296814,118524.9290650095
152.8406120716461,-0.7385845372712267,118531.0992278586
154.9409961687304,-0.7450599749949175,118542.856843713
157.0702444092876,-0.7570750460389888,118542.4489059188
159.2287534535186,-0.7629603388646748,118526.125203177
161.4169254126544,-0.7736129902956352,118537.8052388614
163.6351679238666,-0.7875709978975038,118541.8153114424
165.8838942262052,-0.797345368863723,118473.6851810689
168.1635232375822,-0.8099018776109732,118474.3921054773
170.4744796328127,-0.8192569781879619,118493.0204672303
172.8171939227272,-0.829586486575034,118498.8431822202
175.1921025343722,-0.8406866338370028,118505.2599973516
177.5996478923134,-0.8520297709926951,118499.047748828
180.0402785010548,-0.8635243528051234,118499.6446343181
182.5144490285909,-0.8730929373781228,118504.5300678447
185.0226203911087,-0.8863465288412697,118512.2108384356
187.5652598388506,-0.8992462941962013,118511.8238831388
190.1428410431601,-0.9095725977595648,118445.9087091931
192.7558441847224,-0.9241830783170201,118440.9540981075
195.4047560430176,-0.9337378647235168,118464.0753965679
198.0900700870037,-0.9465633644101652,118497.9230609197
200.8122865670453,-0.9603554269194401,118478.5625767311
203.5719126081061,-0.9742240470869639,118482.1659876926
206.3694623042216,-0.9877325210166376,118440.6676869101
209.2054568142701,-1.000093359567516,118434.6471280318
212.0804244590607,-1.018917901251288,118435.2930611406
214.9949008197541,-1.023894578510324,118470.5102343716
217.9494288376372,-1.038362451361186,118475.5310487804
220.9445589152674,-1.058541844382672,118476.4513448444
223.9808490190091,-1.073883604199468,118458.0643784828
227.0588647829769,-1.087049038104901,118407.2051809598
230.1791796144083,-1.0874039553219,118412.6607018147
233.342374800485,-1.107324464596529,118386.6832027291
236.5490396166212,-1.132609305255599,118431.2199024196
239.7997714362402,-1.147326282742335,118400.8744218195
243.0951758420604,-1.150744175804729,118441.4457363258
246.4358667389097,-1.183823156904553,118427.037038244
249.8224664680903,-1.180661040537531,118399.893916688
253.2556059233158,-1.216967480634509,118409.1253415496
256.7359246682413,-1.211203243135424,118408.8688539017
260.2640710556076,-1.225102152394147,118443.9038336312
263.8407023480248,-1.261265604961771,118421.9383498193
267.4664848404138,-1.261140741131364,118383.9742000078
271.1420939841311,-1.285639178223288,118428.9274841835
274.8682145127997,-1.298370865601091,118425.0822927462
278.6455405698694,-1.315136060101853,118399.0750946815
282.4747758379282,-1.346742358240193,118381.2830118526
286.356633669794,-1.362709039125332,118385.2260890169
290.2918372214046,-1.37025144329677,118388.2697858195
294.2811195865357,-1.390612942763315,118395.9356620577
298.32522393337,-1.410888227295868,118369.5854825158
302.4249036429429,-1.434756790936644,118397.8219313096
306.5809224494899,-1.44924568099379,118394.8499615847
310.7940545827252,-1.476770370806084,118398.3827954389
315.0650849120722,-1.500592295408297,118376.790435857
319.3948090928787,-1.512732378112306,118346.0367942837
323.7840337146403,-1.51216847079569,118371.1834620915
328.2335764512611,-1.549806606743455,118394.1208311766
332.7442662133788,-1.565478027020595,118334.0892141752
337.3169433027837,-1.575347398803542,118367.4003944539
341.9524595689589,-1.626287528859454,118345.2376410382
346.6516785677737,-1.627973824844977,118392.8242237015
351.4154757223552,-1.662671647828459,118395.7846661542
356.2447384861721,-1.693005192379624,118339.8273699013
361.1403665083604,-1.701098137370833,118390.3240146708
366.1032718013192,-1.710929317909675,118378.069937785
371.1343789106103,-1.754086980520883,118388.9210866079
376.2346250871942,-1.782431447574806,118366.6892671125
381.4049604620307,-1.78998011341322,118376.7372368978
386.6463482230797,-1.827155273513341,118355.1337374924
391.9597647947356,-1.835548954789894,118365.087149295
397.3462000197263,-1.861062723546365,118361.7063111445
402.8066573435111,-1.889570472561105,118362.3090207227
408.3421540012152,-1.916122841634131,118369.8406427377
413.9537212071313,-1.937696206455136,118354.9682568463
419.6424043468245,-1.974872993133626,118336.14863018
425.4092631718806,-2.000333524758132,118325.3982617478
431.2553719973268,-2.027580089523836,118337.4110813128
437.1818199017674,-2.053437275194177,118324.6583596893
443.1897109302701,-2.086035883524327,118319.2064593655
449.2801643000398,-2.111510573860055,118305.9360550057
455.4543146089179,-2.140372241403331,118315.1542488308
461.7133120467496,-2.162435368483698,118308.7660206131
468.058322609653,-2.200808007528366,118306.6154940422
474.4905283172334,-2.224964691409156,118307.2594021975
481.0111274327848,-2.251878810835698,118311.6783032547
487.6213346865147,-2.283753106988703,118297.4204875498
494.3223815018371,-2.31883781114848,118296.1190728794
501.1155162247775,-2.344789789420604,118316.8494389385
508.0020043565277,-2.381604501807885,118323.0838334681
514.9831287891967,-2.409169580703777,118306.6729681606
522.0601900448044,-2.446546914790887,118315.6141704504
529.2345065175558,-2.476675032869687,118324.0773977608
536.5074147194462,-2.510437925203383,118311.3898739015
543.8802695292421,-2.544602836367496,118303.0829286628
551.3544444448841,-2.578208122897555,118310.6135851391
558.9313318393548,-2.612938136887891,118302.3044723827
566.6123432200689,-2.652689138124257,118297.0883320417
574.3989094918222,-2.692877506716328,118306.8134673153
582.2924812233572,-2.724316220543768,118289.350678269
590.2945289175922,-2.76475325953959,118296.2253231293
598.4065432855621,-2.798183086413079,118283.301462507
606.6300355241242,-2.838977309302046,118283.6268296819
614.9665375974824,-2.876119094439404,118295.1968637148
623.4176025225784,-2.922301769543085,118279.3941597587
631.9848046584028,-2.955891745800691,118273.9342736706
640.6697399992878,-2.994554162084297,118285.986457901
649.4740264722244,-3.041399547957004,118287.2290305262
658.3993042382687,-3.076415338337345,118289.4400441305
667.4472359980896,-3.11929627839775,118265.4053087567
676.6195073017157,-3.166159586550478,118290.2811998867
685.9178268625365,-3.213134452825999,118273.82456078
695.3439268756237,-3.248945847597801,118264.9438284307
704.8995633404215,-3.30776300212373,118268.3951340569
714.5865163878743,-3.350816465609971,118268.3764470303
724.4065906120503,-3.389720879550189,118257.7726373871
734.3616154063211,-3.441850629945733,118270.9210900149
744.4534453041603,-3.482926863284793,118268.0605482682
754.6839603246286,-3.53168377857314,118244.083475396
765.0550663226049,-3.582624512091921,118241.8966167099
775.5686953438275,-3.632911620447598,118248.2294291007
786.2268059848204,-3.680530633978328,118247.9387605382
797.0313837577618,-3.729764507660787,118242.4159108178
807.9844414603656,-3.785107594316967,118249.387539716
819.0880195508502,-3.83895986386549,118260.4376109555
830.3441865280577,-3.896483527093205,118273.0578994152
841.7550393167949,-3.949612340239788,118252.7710391455
853.3227036584746,-4.005289418435624,118250.7190749069
865.0493345071212,-4.060234008687629,118214.0471999172
876.9371164308191,-4.123082653173814,118229.3633931861
888.9882640186798,-4.1735253829438,118208.3905754233
901.2050222934001,-4.229866986265128,118210.6690660577
913.5896671294882,-4.29389171977817,118227.9992417346
926.1445056772425,-4.353777893280439,118206.6869559674
938.8718767925495,-4.408367363162641,118195.8316358621
951.7741514725965,-4.474992533527699,118193.8446382627
964.8537332975635,-4.541617813501846,118183.2953133232
978.11305887839,-4.601033474156013,118179.6156583035
991.5545983106958,-4.66579433413519,118179.2613682585
1005.180855634937,-4.733813723838076,118168.4212482739
1018.994369302886,-4.79876813169313,118162.8949794551
1032.997712650524,-4.86588518717743,118162.2744872008
1047.19349437743,-4.940782484886496,118165.6912896481
1061.584359032758,-5.007126394655039,118156.6965446939
1076.172987507897,-5.083916448048513,118131.322701663
1090.962097535891,-5.152297937777251,118115.9334498072
1105.954444197733,-5.22704104769473,118106.38857121
1121.152820435613,-5.297881954666215,118098.0266231294
1136.560057573217,-5.376581330016138,118089.9381750431
1152.179025843176,-5.45412237938212,118081.4344882049
1168.012634921768,-5.529264443363755,118077.4773729479
1184.063834470966,-5.611660644747269,118058.8275280391
1200.335614687927,-5.689399541348215,118060.3558965035
1216.831006862048,-5.769719281922318,118048.3488834231
1233.553083939666,-5.852273831809589,118041.8168745064
1250.504961096516,-5.932906527478355,118021.2641143029
1267.689796318068,-6.019887412943045,118023.7445567386
1285.110790987826,-6.107867265476258,118021.4279441011
1302.771190483722,-6.19302420358615,118002.5170200503
1320.674284782697,-6.278909089936884,117988.6443284517
1338.8234090736,-6.369648782662662,117973.4175729447
1357.221944378499,-6.462136606375156,117969.467624389
1375.873318182539,-6.553453644404497,117950.9912203127
1394.781005072454,-6.648460708987312,117948.8254003352
1413.948527383842,-6.743988632961092,117930.205171776
1433.379455857361,-6.839993199747731,117920.5094378081
1453.077410303913,-6.937724543777803,117889.528083863
1473.046060278989,-7.039051677235594,117869.4825904125
1493.289125766272,-7.136431235485476,117860.4995901791
1513.810377870644,-7.238354053074323,117837.5996516932
1534.613639520698,-7.342501719585798,117820.4419395513
1555.702786180927,-7.447038359309573,117795.6694655926
1577.081746573684,-7.554273559383599,117784.3375448405
1598.754503411067,-7.661443006869978,117752.405798026
1620.725094136865,-7.771692808814879,117731.31765273
1642.997611678703,-7.880337184535444,117714.4603461787
1665.576205210506,-7.993733558265095,117688.7196323482
1688.465080925466,-8.108873068870212,117669.3943952555
1711.668502819615,-8.222709085393708,117636.0472399578
1735.190793486165,-8.340289669438077,117601.8256511103
1759.036334920775,-8.462716011543151,117575.2187230573
1783.209569337878,-8.579161717048615,117549.7868802225
1807.714999998221,-8.703218862970798,117504.7804326075
1832.557192047788,-8.825651330093663,117482.7100565564
1857.740773368246,-8.955607617502663,117439.2695387235
1883.270435439077,-9.083816968129891,117414.4925882022
1909.150934211559,-9.206574949232822,117374.9476826361
1935.387090994758,-9.338106189222843,117326.5605605715
1961.983793353699,-9.47077683653364,117288.2711150375
1988.945996019872,-9.609127165255991,117246.7391095677
2016.278721814254,-9.745926077988559,117206.293315187
2043.987062583024,-9.880168286235307,117171.9169224997
2072.076180146118,-10.02464321911087,117105.2545956653
2100.55130725884,-10.16548603746579,117069.55462218
2129.417748586674,-10.30796610753741,117017.288293708
2158.680881693497,-10.45289702729962,116965.7725232169
