#Digilent WaveForms Impedance Analyzer
#Device Name: Discovery2
#Serial Number: SN:210321B053D5
#Date Time: 
#Digilent WaveForms Impedance Analyzer Trace#Trace: Trace
#Start: 20 Hz
#Stop: 20000 Hz
#Steps: 501
#Resistor: 100000 O
#Average: 1
#ProbeResistance: 1.04e+06 O
#ProbeCapacitance: 4.3e-11 F
#Compensation:none
#Wavegen: Wavegen1
#Amplitude: 2 V
#Offset: 0 V
#Amplification: 1 X
#Settle: 0.01 s
#MinPeriods: 16
#Scale: Logarithmic
#Channel: Channel 1
#Range: 5.43971 V
#Offset: 0.000245756 V
#Attenuation: 1 X
#Channel: Channel 2
#Range: 5.43745 V
#Offset: -0.000288559 V
#Attenuation: 1 X

Frequency (Hz),Trace th (deg),Trace |Z| (Ohm)
20.00000000000002,2.527924880095032,6265.117887402601
20.2782277147336,2.546170921947923,6269.791077955155
20.56032596252949,2.596626891216359,6272.944939137265
20.84634858786609,2.629857612315216,6270.252063411955
21.13635018427319,2.676327692441424,6263.992239692932
21.43038610475214,2.721242468028493,6257.44386252169
21.72851247234133,2.777618062178717,6257.60799698078
22.03078619082831,2.807419261522683,6260.690405825512
22.33726495561125,2.853321121156016,6263.804490492879
22.64800726471115,2.911841459325919,6257.176274358675
22.96307242993768,2.94355284370979,6260.40549026778
23.28252058820984,3.006380098827325,6258.018628008707
23.60641271303462,3.042536852113196,6257.928992149932
23.93481062614488,3.094216126615982,6258.741959302622
24.26777700929958,3.132812696473527,6262.64620888743
24.60537541624765,3.197711184781195,6261.306328061743
24.94767028485889,3.242199948838326,6259.239020105486
25.29472694942304,3.293321325399196,6257.095147788916
25.64661165312046,3.352461913372794,6257.731616309646
26.00339156066583,3.407871359141835,6255.551224734714
26.36513477112818,3.459650850269985,6254.42308149063
26.73191033092887,3.514149055556871,6257.231956551184
27.10378824702076,3.565174173958674,6253.849866224849
27.48083950025033,3.6233049399783,6256.157778910604
27.8631360589061,3.683115908149499,6256.388680975157
28.25075089245511,3.736509715123718,6258.389757330132
28.64375798547091,3.792595883371295,6258.794816842975
29.04223235175487,3.857358354890108,6260.521822146891
29.44625004865442,3.920394807396307,6261.746779335135
29.85588819157995,3.968506617129086,6261.635736037703
30.2712249687242,4.036649089288775,6263.54802225787
30.69233965598591,4.102709913931161,6260.798403625236
31.11931263210153,4.159075405037961,6264.3100847567
31.552225393987,4.227452542176589,6261.734356933736
31.99116057229342,4.288510341912442,6264.342365028711
32.43620194717863,4.34887255127219,6265.217814049973
32.88743446429865,4.415605668075577,6265.967986603883
33.34494425102129,4.488820596667358,6266.938063272712
33.8088186328653,4.561068811006195,6268.446661032493
34.27914615016854,4.615512942721163,6270.778535637814
34.75601657498753,4.686480314967202,6277.486200922961
35.23952092823262,4.750598045304069,6281.514376545233
35.72975149704103,4.826591907435267,6284.924855075791
36.22680185239209,4.905203963671375,6285.413035822568
36.73076686696695,4.972659956301832,6287.952492392904
37.24174273325739,5.040651700566119,6288.182746768717
37.75982698192589,5.115413294624258,6289.45003528414
38.28511850042176,5.201307471507879,6292.976899153155
38.81771755185559,5.283661215013333,6295.560326506316
39.35772579413694,5.351898140308161,6297.537572681698
39.90524629937762,5.428831622432316,6294.06037054845
40.46038357356548,5.506233627274035,6292.592697742692
41.02324357651133,5.591597009525695,6296.708453281169
41.59393374207396,5.650506225433141,6300.920832132477
42.17256299866582,5.736536749585005,6301.491875170657
42.7592417900447,5.829121805108853,6307.177198894658
43.35408209639392,5.929387867282611,6300.902565465286
43.95719745569655,6.063366623626696,6312.397209511766
44.56870298540611,6.090453513817073,6309.384330151717
45.18871540441961,6.181944445809593,6315.258094684201
45.81735305535549,6.32165506469817,6330.484653785846
46.4547359271422,6.278360758453888,6331.743285167442
47.10098567792023,6.422736258981466,6341.609262620327
47.75622565826362,6.471424680368941,6337.728316634692
48.4205809347236,6.632222784375009,6328.967688657302
49.09417831370067,6.676174564648243,6341.85472875207
49.77714636564786,6.726716805555983,6363.128548693142
50.46961544961156,6.844658884903992,6384.627725652348
51.17171773811295,7.019363730345829,6378.57462062138
51.88358724237636,7.06179125434632,6384.727854044826
52.60535983790768,7.170704355070922,6401.040245313833
53.33717329042967,7.286368641717038,6379.024255314753
54.07916728217693,7.501529701809389,6362.74966086423
54.83148343855773,7.589580162083456,6360.331929286509
55.59426535518583,7.590354678868481,6353.871519504009
56.36765862528916,7.813861731323623,6351.496226671461
57.15181086749899,7.843378444152164,6344.66309521736
57.94687175402655,7.992518948553553,6335.286377686738
58.75299303923067,8.15450868972585,6341.022116279698
59.57032858858388,8.258984134641382,6338.541486832763
60.39903440804039,8.338875980082589,6332.628744639952
61.23926867381364,8.46119622131256,6332.94330110708
62.09119176256718,8.618694711586407,6331.059600261932
62.95496628202641,8.738549392205101,6332.247769386603
63.8307571020153,8.853858751250629,6335.795932737366
64.71873138592575,8.968395405221866,6338.425789358723
65.61905862262381,9.102892920606376,6342.170171171936
66.53191065880094,9.232318186463976,6345.275909911867
67.45746173177378,9.361362823609339,6348.158511319769
68.39588850274181,9.485003584530737,6352.399326075131
69.34737009050633,9.609463536929443,6359.074286147341
70.31208810565967,9.740209809135823,6365.233300658858
71.29022668524885,9.879600244970627,6368.031799650576
72.2819725279227,9.999880479981131,6376.669494226081
73.28751492956667,10.13877967612949,6383.795761751337
74.30704581943456,10.26541918151884,6390.896846393996
75.34075979678178,10.41585879337623,6396.955963060956
76.38885416800936,10.55609561171771,6400.665740544602
77.45152898432346,10.69640086595498,6410.232456696777
78.52898707992003,10.83652978920873,6419.985336976111
79.62143411069947,10.95703692462809,6430.742929213034
80.72907859352105,11.09639153947898,6450.142727798607
81.8521319460022,11.21369744569324,6474.771492554595
82.99080852687266,11.32359315066175,6493.908064619518
84.14532567688885,11.46089575878088,6512.733744188949
85.31590376031861,11.68520885059945,6475.890332011376
86.50276620700177,11.8678027367595,6477.035010209541
87.70613955499721,12.05233118174531,6468.467308991121
88.92625349382178,12.23348426563434,6456.730441648036
90.1633409082921,12.4056185124171,6460.304052073474
91.41763792297505,12.56913152541676,6471.764340443616
92.68938394725768,12.74331856177829,6472.443739433583
93.97882172104312,12.90453060144332,6486.132771415318
95.28619736108323,13.07661514470902,6490.931334032177
96.61176040795456,13.22007369332249,6516.23937682065
97.95576387368932,13.39537844308247,6525.816606149825
99.31846429006725,13.604659900233,6510.803313950185
100.7001217575811,13.79132551239588,6512.959052348704
102.1009999950813,13.97291202634107,6524.200369030338
103.5213663901136,14.13643377188937,6540.379932982789
104.9614920499546,14.30758002530188,6554.870747974588
106.421651853359,14.55124513449538,6544.037881542723
107.9021245030256,14.71313566591265,6562.386160525111
109.4031925787944,14.89885194574911,6577.77288926849
110.9251425915822,15.06480674161905,6594.33526344894
112.4682650380699,15.26281638310771,6603.122811935354
114.0328544561496,15.44788015702303,6613.989652719603
115.6192094811437,15.66696625132407,6618.992531842825
117.2276329028058,15.87205710175927,6622.79704362855
118.8584317231146,16.08880410116001,6630.5854931817
120.5119172148716,16.30649702754142,6634.981232157666
122.1884049811145,16.53222682690837,6636.103686487207
123.8882150153564,16.87026023359024,6599.328812294784
125.6116717626637,17.10067229596421,6603.234626531254
127.3591041815832,17.33325903864469,6609.497263364897
129.1308458069313,17.56277960475977,6620.711345267544
130.9272348134551,17.80701298258377,6625.996869192799
132.7486140803819,18.03919913550379,6632.928625354852
134.5953312568636,18.2525915551123,6643.45297459023
136.4677388283341,18.51343232173999,6655.608779259474
138.3661941837874,18.74031915596175,6662.908508924033
140.2910596839944,18.99027246298267,6669.286773433661
142.2427027306659,19.25905319919892,6678.862302575372
144.2214958365801,19.50449955322521,6688.943581924865
146.2278166966836,19.7440701847887,6700.090614059364
148.2620482601837,19.95017851975637,6717.713277678538
150.3245788036412,20.22543617555731,6733.156784301853
152.4158020050826,20.47568579781432,6745.090316816173
154.5361170191406,20.73744964902821,6760.430224181282
156.6859285532426,20.99274351879333,6772.117564149423
158.8656469448564,21.25286119824971,6783.843424602846
161.0756882398136,21.50227278934595,6803.303645876055
163.3164742717186,21.77205841036277,6818.260533294684
165.5884327424671,22.04774966963376,6830.973259041146
167.8919973038796,22.33696673692878,6845.982204742758
170.2276076404755,22.59654761228198,6865.457342580381
172.5957095533942,22.85611949247773,6889.613901186184
174.9967550454874,23.11641993430851,6905.723642770733
177.4312024075923,23.40269729463377,6921.637521075165
179.8995163060073,23.67537512226273,6938.371501739193
182.4021678711821,23.979755461774,6957.203052217238
184.9396347876448,24.25976743258185,6975.520650947217
187.5124013851762,24.54769048549135,6993.724615964597
190.1209587312566,24.84060831242097,7010.591731998182
192.7658047247943,25.15869154329078,7029.317367688444
195.4474441911624,25.45592316651395,7048.763731457491
198.1663889785537,25.75683275294144,7069.751164743404
200.9231580556792,26.05553975008652,7089.674562787688
203.7182776108236,26.36981746248616,7109.900638943573
206.5522811522797,26.80599658154796,7100.63679416695
209.4257096101801,27.10684950578359,7125.057988487888
212.3391114397452,27.42389166216142,7149.854094558715
215.2930427259671,27.74814850413287,7169.526084847842
218.2880672897514,28.05293601992967,7195.891425066262
221.3247567955334,28.38440911777537,7220.840658590545
224.4036908603928,28.6986370847584,7246.336598869515
227.5254571646863,29.02955424848724,7272.618126730034
230.6906515642186,29.35468199590463,7298.568961267517
233.8998782039743,29.68849708215199,7323.940122907368
237.1537496334322,30.0436070120781,7346.452970963775
240.4528869234827,30.37957539510344,7372.393219482653
243.7979197849735,30.72190248565365,7401.099395949724
247.1894866889023,31.08000177247744,7428.815805568533
250.6282349882834,31.43079457140362,7456.547285548828
254.1148210417085,31.78060534421585,7485.10837540488
257.649910338627,32.13273489418038,7515.760550247602
261.2341776263685,32.48390096989525,7546.863140148192
264.8683070389332,32.8500898518383,7576.423256070905
268.552992227573,33.18339560565943,7610.066128538388
272.2889364931902,33.54656155692928,7645.695619929648
276.0768529205772,33.88682138784599,7681.837752766569
279.9174645145238,34.26106792693526,7714.642978790174
283.8115043378186,34.63376262764113,7752.738234088597
287.7597156511694,34.97485062766162,7791.673815866346
291.7628520550699,35.32414163290872,7828.151904449504
295.8216776336417,35.69097239906754,7866.34084072733
299.936967100475,36.09364843317655,7905.089157365108
304.1095059464994,36.44319092123747,7949.247309533392
308.3400905899122,36.81856918335327,7988.038426430917
312.6295285281911,37.17687633164581,8032.111746689011
316.978638492223,37.54137041429266,8076.234827682225
321.3882506025758,37.90500311795466,8121.857263265906
325.8592065279448,38.27006412904213,8168.307752710134
330.3923596458033,38.63198391790931,8217.938206309111
334.9885752052875,39.01517075275893,8263.496000191119
339.6487304923489,39.37473633965436,8316.595045030084
344.3737149972014,39.73545853630439,8360.04867572508
349.1644305841007,40.12035441689925,8412.652948319865
354.0217916634842,40.48255721154172,8467.699307513785
358.9467253665053,40.84829649956927,8520.545635734266
363.9401717219967,41.23437928660918,8576.686418813901
369.0030838358947,41.5989275920319,8634.222201898141
374.1364280731601,41.95373198355698,8691.663161958289
379.3411842422293,42.32918236374412,8751.409140642272
384.6183457820317,42.72215753982269,8808.370435129689
389.9689199516091,43.0784672052178,8875.224009680342
395.3939280223722,43.43034839149536,8936.142668417653
400.8944054730323,43.79033552315089,8999.408919098898
406.4714021872444,44.17309663220967,9063.686620283044
412.1259826540001,44.54047696312175,9131.212469131
417.8592261708079,44.8877226540992,9203.762834737057
423.6722270497004,45.26337375089173,9271.992254793791
429.5660948261068,45.6307124358726,9342.40015692729
435.5419544706318,45.99254218398391,9417.243100607491
441.6009466037801,46.33762283067116,9488.178337162006
447.744227713668,46.69415775004801,9565.798056973767
453.9729703767645,47.05935312991203,9646.480481655288
460.2883634817018,47.41398599137533,9720.519601313388
466.6916124562007,47.77110475204493,9802.838549917653
473.1839394971518,48.12477444036955,9883.847374189159
479.7665838038982,48.48334401421205,9966.308719448702
486.4408018147632,48.81721829650023,10053.76694151882
493.207867446868,49.18752732225243,10138.31059921192
500.0690723392864,49.53088111820023,10231.12970240626
507.0257260995817,49.88194188416848,10319.78770722349
514.0791565537729,50.22549912767093,10410.23711479533
521.2307099997793,50.55950755202127,10504.35870653779
528.4817514643895,50.90398008908391,10603.32825499661
535.8336649638065,51.2550170980134,10697.1857614761
543.2878537678167,51.59107778437797,10795.5280981902
550.8457406676334,51.92640478693249,10899.32301315265
558.5087682474679,52.23882771363739,11003.0698632432
566.278399159876,52.58718542532575,11104.50166769287
574.1561164049384,52.90706401278587,11213.63290601593
582.1434236133214,53.23135325485149,11323.71804150539
590.2418453332774,53.54603697445258,11436.83108931763
598.4529273216381,53.8724273669558,11548.17814647598
606.7782368388544,54.1748447661338,11666.65832774989
615.2193629481419,54.49472285700174,11782.34678502816
623.7779168187877,54.8109358995785,11902.14536106907
632.4555320336763,55.1024039053037,12026.33790064095
641.2538649010935,55.41952508693175,12150.716739047
650.1745947708691,55.72217047070885,12278.46501578525
659.2194243549159,56.00407000645561,12406.2319148964
668.3900800522289,56.29788392626912,12540.32430262824
677.6883122784055,56.57709063380847,12676.00761427732
687.1158957997496,56.88621611634589,12813.71086701957
696.674630072024,57.1880131256063,12948.30096077693
706.3663395839144,57.48696786461666,13086.1501243855
716.1928742052725,57.76235571238718,13231.20787826826
726.1561095402031,58.04077851846261,13377.90806283634
736.2579472850633,58.325526660859,13526.2380910265
746.5003155914417,58.58192995402642,13677.28816601386
756.8851694341871,58.85138671338683,13834.52089443917
767.414490984558,59.12825199208403,13988.96184278683
778.0902899885618,59.39041112443928,14150.39463351583
788.9146041505574,59.65915290873651,14309.83399286757
799.8894995221956,59.92865180718151,14472.29875114267
811.0170708967684,60.20904340341126,14636.80243642575
822.299442209045,60.45438175894073,14810.53717025912
833.7387669406713,60.69145405990109,14983.18189994051
845.3372285312066,60.94779946182263,15158.77024260154
857.0970407948797,61.18210167724894,15340.35383745671
869.0204483431438,61.41075980276651,15525.06539720381
881.1097270131073,61.64675117338782,15711.28092691951
893.367184301927,61.88064126106325,15901.7430082784
905.7951598072423,62.13088061384895,16091.89794430887
918.3960256737379,62.36024976507569,16285.84327190296
931.1721870459187,62.57662362708767,16487.24647476944
944.1260825271819,62.79748278115961,16689.34512644728
957.2601846452776,63.01111681018738,16898.27835916612
970.5770003242429,63.22527920497699,17104.65070562892
984.0790713629018,63.42876504878021,17321.83864866171
997.7689749200243,63.6278382888779,17540.24182038552
1011.649324006228,63.82769713202266,17761.27692872415
1025.72276798273,64.02508976418416,17987.26218266261
1039.991993067032,64.21725820306538,18218.25349936987
1054.459722845645,64.39581517825876,18451.36429193042
1069.128718793943,64.59518448727437,18685.941865372
1084.001780803248,64.76355668759302,18931.72269467639
1099.081747715249,64.9347684473003,19175.5196515172
1114.37149786386,65.1112171264007,19427.01468742597
1129.873949624605,65.2827963902003,19682.27285308001
1145.592061971658,65.43792914604677,19942.87826184209
1161.528835042624,65.60263091581844,20208.01163146303
1177.687310711178,65.75810467029211,20475.21245534655
1194.070573167674,65.90924289223408,20748.69387629495
1210.681749507827,66.05138155483279,21027.00622648489
1227.524010329588,66.20554052082369,21307.39327327865
1244.600570338319,66.33929423086951,21598.25051063399
1261.914688960387,66.47438877231329,21893.29949296271
1279.469670965296,66.60633483142252,22192.74911383519
1297.268867096477,66.73459699832931,22494.99858045477
1315.315674710841,66.85691966823211,22803.56939043788
1333.613538427244,66.98452972511924,23123.46883534154
1352.165950783964,67.09716530658817,23439.72104054227
1370.976452905323,67.20765470582509,23766.75743954888
1390.048635177594,67.31007421053181,24103.92755047466
1409.386137934294,67.41898024107601,24440.44019647772
1428.992652151027,67.50931454589268,24783.5121944651
1448.87192014998,67.60589236605635,25138.47232054214
1469.02773631423,67.69115578018115,25495.23640499764
1489.463947811978,67.77818024783313,25860.86814402409
1510.184455330868,67.85758579207473,26234.84728636418
1531.193213822513,67.93463377626466,26611.6601452891
1552.494233257384,68.00877854124992,26994.99563704979
1574.091579390198,68.0737397437981,27391.29111936919
1595.989374535954,68.13685748804389,27790.99463377019
1618.191798356765,68.19224455115666,28202.65870464883
1640.703088659637,68.23984720964428,28615.96194703687
1663.527542205343,68.28687429027525,29042.88029168111
1686.669515528551,68.33155224325263,29476.89060168552
1710.133425769367,68.36789992482646,29916.85851541439
1733.923751516434,68.3981851466237,30366.97989721608
1758.045033661769,68.42447908621698,30826.84723688512
1782.501876267492,68.45251962333747,31291.83171073855
1807.298947444604,68.4678709490783,31773.68218429595
1832.440980244,68.4821872037826,32259.70612128037
1857.932773559874,68.48360864250182,32758.50233131293
1883.779193045684,68.48794545145921,33266.03888505036
1909.985172042873,68.48411802835531,33782.78604366145
1936.555712522499,68.47414265958568,34311.21927624712
1963.49588603997,68.4568254215725,34848.95041104155
1990.810834703055,68.43907898616527,35406.60884415095
2018.50577215337,68.41656138915036,35964.89645327859
2046.58598456151,68.38565973366951,36539.92167494454
2075.056831636026,68.34737658549065,37131.34730175843
2103.923747646447,68.30092997420482,37730.32849471716
2133.192242460517,68.2493047093389,38343.57058837446
2162.867902595877,68.19312513112592,38968.77689377031
2192.956392286371,68.13725318433553,39609.75514576848
2223.463454563184,68.06319693827312,40267.9071885138
2254.394912351022,67.99386407112432,40935.00162507255
2285.756669579545,67.91053661135108,41621.00671905967
2317.554712310252,67.81568671577834,42325.00525006527
2349.795109879059,67.71843494216029,43043.51310576392
2382.48401605475,67.61684294154669,43781.96309520485
2415.62767021356,67.50358658957069,44532.72862376174
2449.232398530097,67.38344542955988,45306.3237929124
2483.304615184822,67.25533260113549,46093.78388373768
2517.850823588335,67.12236719750651,46901.62485502697
2552.877617622687,66.97933201608693,47734.59471460166
2588.391682899972,66.82288548203377,48584.61096713397
