#Digilent WaveForms Impedance Analyzer
#Device Name: Discovery2
#Serial Number: SN:210321B053D5
#Date Time: 
#Digilent WaveForms Impedance Analyzer Trace#Trace: Trace
#Start: 20 Hz
#Stop: 20000 Hz
#Steps: 501
#Resistor: 100000 O
#Average: 1
#ProbeResistance: 1.04e+06 O
#ProbeCapacitance: 4.3e-11 F
#Compensation:none
#Wavegen: Wavegen1
#Amplitude: 2 V
#Offset: 0 V
#Amplification: 1 X
#Settle: 0.01 s
#MinPeriods: 16
#Scale: Logarithmic
#Channel: Channel 1
#Range: 5.43971 V
#Offset: 0.000245756 V
#Attenuation: 1 X
#Channel: Channel 2
#Range: 5.43745 V
#Offset: -0.000288559 V
#Attenuation: 1 X

Frequency (Hz),Trace th (deg),Trace |Z| (Ohm)
20.00000000000002,2.432144071820564,6474.210592343631
20.2782277147336,2.47058788122907,6471.153516867096
20.56032596252949,2.515755836098573,6468.908098943042
20.84634858786609,2.520841650046558,6544.022320799946
21.13635018427319,2.501166581484168,6725.620208164337
21.43038610475214,2.529823143391703,6756.495899247955
21.72851247234133,2.585484798272579,6719.798804438514
22.03078619082831,2.698808470818292,6515.210863522095
22.33726495561125,2.771731772050379,6447.900664736456
22.64800726471115,2.848531136352241,6391.559250294955
22.96307242993768,2.904905834361368,6363.428801344548
23.28252058820984,2.960665635738728,6345.344458185223
23.60641271303462,3.011086290754189,6332.233455352324
23.93481062614488,3.058204127360772,6326.105579228197
24.26777700929958,3.11512564583951,6322.688606842969
24.60537541624765,3.158993295470275,6316.102407099378
24.94767028485889,3.22071405994008,6307.936153080153
25.29472694942304,3.269013203970341,6302.767352381346
25.64661165312046,3.324968006722957,6294.78122828603
26.00339156066583,3.380691390579538,6292.714640722305
26.36513477112818,3.440827614262932,6293.244779482363
26.73191033092887,3.492204908163158,6289.062648861264
27.10378824702076,3.551997254612874,6287.826868616601
27.48083950025033,3.600166788504375,6287.461628454404
27.8631360589061,3.651448563848648,6287.747828490775
28.25075089245511,3.719851636791524,6288.207501049517
28.64375798547091,3.781987574186549,6286.061936093643
29.04223235175487,3.831666580859951,6287.477878460428
29.44625004865442,3.888088075706713,6285.503316684576
29.85588819157995,3.946623359391938,6285.7020919592
30.2712249687242,4.023518742959983,6284.268658796084
30.69233965598591,4.072259674809336,6283.85189432624
31.11931263210153,4.139385521094903,6286.428550277006
31.552225393987,4.198682300642729,6283.874909309277
31.99116057229342,4.278896403410107,6285.711734463155
32.43620194717863,4.333013101325424,6285.925423908714
32.88743446429865,4.398757828147986,6284.814705786716
33.34494425102129,4.468782053315511,6285.489936736106
33.8088186328653,4.537274581906911,6283.686177607174
34.27914615016854,4.600756777660286,6283.793436319416
34.75601657498753,4.676475147256006,6284.919433629751
35.23952092823262,4.746720247171384,6281.44189847739
35.72975149704103,4.817416935778745,6283.132312855922
36.22680185239209,4.886389432696229,6282.004525071017
36.73076686696695,4.970058179281627,6281.374729571733
37.24174273325739,5.049302408293791,6281.217328063961
37.75982698192589,5.111610830679919,6283.415981565425
38.28511850042176,5.195758117736378,6281.60387195979
38.81771755185559,5.277668766225088,6281.805889428947
39.35772579413694,5.348817796601437,6284.463023025781
39.90524629937762,5.43767993397632,6285.330981435639
40.46038357356548,5.504652548996557,6284.708016381205
41.02324357651133,5.603865478144481,6285.035447664414
41.59393374207396,5.658514087328742,6285.374673187092
42.17256299866582,5.748980133813442,6284.512844659448
42.7592417900447,5.848671515270232,6282.090235695719
43.35408209639392,5.975581078191172,6283.066718390976
43.95719745569655,5.967722908836071,6282.944841509016
44.56870298540611,6.045295399687093,6289.900222358398
45.18871540441961,6.220008687814167,6278.203720383005
45.81735305535549,6.241118393775094,6297.169190174102
46.4547359271422,6.492513922351911,6289.489680670846
47.10098567792023,6.564118453784881,6283.749952191458
47.75622565826362,6.617991802256555,6300.840952203853
48.4205809347236,6.619657746903172,6282.042617566854
49.09417831370067,6.858245014631104,6299.770233866972
49.77714636564786,6.964209202175273,6298.119586409232
50.46961544961156,7.029092133649865,6280.280132383863
51.17171773811295,7.080703650147625,6306.352889638163
51.88358724237636,7.072410998852504,6298.1581572588
52.60535983790768,7.207609318642302,6306.102444165272
53.33717329042967,7.437967157972983,6308.104750760285
54.07916728217693,7.404914467840736,6308.700509337908
54.83148343855773,7.518038148987486,6296.891579952379
55.59426535518583,7.667406881923536,6314.580797701347
56.36765862528916,7.885770185066378,6308.502549920818
57.15181086749899,7.98053898103645,6302.002954340964
57.94687175402655,8.08805591227104,6303.906458225802
58.75299303923067,8.115632018570361,6312.721623089381
59.57032858858388,8.289707205469707,6311.259758175521
60.39903440804039,8.357025738574276,6312.064866914134
61.23926867381364,8.475237740337779,6313.634491999039
62.09119176256718,8.611375466879194,6315.781414602264
62.95496628202641,8.740739929671019,6318.115561852806
63.8307571020153,8.861512183837819,6319.513095820604
64.71873138592575,8.988142993405502,6324.412534300697
65.61905862262381,9.118580288987872,6325.600579295231
66.53191065880094,9.25213613670274,6323.815838500435
67.45746173177378,9.395206090276055,6326.663263464474
68.39588850274181,9.498342861593427,6332.22010733662
69.34737009050633,9.652371543065177,6330.729445601294
70.31208810565967,9.79146974614858,6334.957860424246
71.29022668524885,9.923154376623502,6337.854828989335
72.2819725279227,10.07168974723403,6340.405595057878
73.28751492956667,10.20560711050013,6342.531894684789
74.30704581943456,10.34722309719822,6344.189623192454
75.34075979678178,10.49602774286098,6347.982115186859
76.38885416800936,10.63751858703805,6349.91671734728
77.45152898432346,10.78235443460255,6352.487896681945
78.52898707992003,10.93589750444038,6357.666175617892
79.62143411069947,11.08965077695557,6360.367493678518
80.72907859352105,11.24566743845975,6362.5232938889
81.8521319460022,11.38062945120209,6369.028590683529
82.99080852687266,11.54850103780994,6372.582249993357
84.14532567688885,11.70094126191637,6377.170010407367
85.31590376031861,11.86114870670773,6380.430642366879
86.50276620700177,12.03039053961895,6384.01458486812
87.70613955499721,12.21033035255034,6385.136665745511
88.92625349382178,12.38230702115347,6390.491260344471
90.1633409082921,12.54379805189594,6395.958699510093
91.41763792297505,12.7017644976045,6400.161871932826
92.68938394725768,12.88360546234396,6404.234554639888
93.97882172104312,13.06302666912588,6409.252435417591
95.28619736108323,13.24128297113628,6412.641910890798
96.61176040795456,13.42446998730582,6420.248850384167
97.95576387368932,13.59654617659392,6424.339154649
99.31846429006725,13.7731297399958,6429.911651088397
100.7001217575811,13.97386949809302,6437.185381519448
102.1009999950813,14.14950513920482,6443.014126685794
103.5213663901136,14.34786011781311,6445.480823710504
104.9614920499546,14.53359712877802,6452.382808476472
106.421651853359,14.72601325076171,6461.002420461489
107.9021245030256,14.93254156052401,6464.860796718917
109.4031925787944,15.12435016043015,6472.72536835864
110.9251425915822,15.32600178776622,6480.024393588998
112.4682650380699,15.5278098419929,6487.232115825586
114.0328544561496,15.73641140610992,6493.710513534161
115.6192094811437,15.95079989270312,6500.067799471323
117.2276329028058,16.15923899724435,6504.988568972097
118.8584317231146,16.38253928360588,6513.569913158535
120.5119172148716,16.59033268576705,6524.576924295879
122.1884049811145,16.81605706741873,6531.388485161398
123.8882150153564,17.02831783822691,6539.805292604929
125.6116717626637,17.25851676066044,6546.396953373371
127.3591041815832,17.49687616076678,6554.475643006161
129.1308458069313,17.7194042489129,6567.708264321873
130.9272348134551,17.95567455007586,6574.15232176241
132.7486140803819,18.17044061826283,6583.298065253106
134.5953312568636,18.41499782770182,6592.198882188983
136.4677388283341,18.66264714311957,6600.766803699729
138.3661941837874,18.88717111377704,6614.304141021904
140.2910596839944,19.14314183289425,6620.016239087133
142.2427027306659,19.36391729549344,6633.321999694795
144.2214958365801,19.62921471921806,6641.895576101749
146.2278166966836,19.87610375489234,6655.87697056528
148.2620482601837,20.13520896580617,6667.882966282251
150.3245788036412,20.40326227858314,6677.517977340257
152.4158020050826,20.65881147073758,6693.309899636752
154.5361170191406,20.88782503440506,6705.63926982806
156.6859285532426,21.16208480187599,6718.582509155412
158.8656469448564,21.44658946364131,6726.812531715604
161.0756882398136,21.70104134146158,6744.318445250477
163.3164742717186,21.99186167474913,6758.477029595641
165.5884327424671,22.26872003128162,6771.786248424599
167.8919973038796,22.53360402293307,6787.534061132736
170.2276076404755,22.82777356497226,6801.731697229586
172.5957095533942,23.09199940139453,6820.424487715005
174.9967550454874,23.37616746800323,6833.724996019919
177.4312024075923,23.67007030275317,6850.563702725647
179.8995163060073,23.9593755003998,6867.486217122147
182.4021678711821,24.246814890063,6885.280531724558
184.9396347876448,24.53623193944263,6903.06277264941
187.5124013851762,24.84736180435997,6919.756809379864
190.1209587312566,25.13095951388178,6937.973996418932
192.7658047247943,25.42941788425357,6959.821073706325
195.4474441911624,25.7569887434341,6976.149867695181
198.1663889785537,26.0447656492923,6997.754782018058
200.9231580556792,26.35686616358704,7018.101168796166
203.7182776108236,26.65175041300879,7041.226989685324
206.5522811522797,26.97817510783154,7060.45552232705
209.4257096101801,27.28761004772443,7083.889740434269
212.3391114397452,27.60846045177522,7105.407406283222
215.2930427259671,27.94409231171427,7126.01258790292
218.2880672897514,28.26204136589147,7151.039734691902
221.3247567955334,28.5818959860501,7174.104473234536
224.4036908603928,28.90630969174298,7201.914523485731
227.5254571646863,29.24213384806274,7226.369818254589
230.6906515642186,29.5611864360222,7252.462882132668
233.8998782039743,29.89775649622395,7280.666599390801
237.1537496334322,30.24591666741781,7306.19225483434
240.4528869234827,30.58115918339704,7335.112639598291
243.7979197849735,30.91678423787896,7363.199636155773
247.1894866889023,31.26831687234039,7391.75018788849
250.6282349882834,31.60564400974748,7420.556365407479
254.1148210417085,31.94105591503812,7451.934099384671
257.649910338627,32.28157247110922,7484.885670958768
261.2341776263685,32.63671096498226,7516.900029990218
264.8683070389332,32.98325827615933,7551.332271868605
268.552992227573,33.33922856242394,7583.327850200407
272.2889364931902,33.68861343750224,7616.279117769577
276.0768529205772,34.07147444076481,7652.340509734543
279.9174645145238,34.40221537342575,7687.213542762129
283.8115043378186,34.77636904580774,7726.405974162556
287.7597156511694,35.13982439841309,7763.045842396747
291.7628520550699,35.489952044701,7803.035459742799
295.8216776336417,35.85245187958625,7841.363228572296
299.936967100475,36.21814034038823,7882.646960426181
304.1095059464994,36.58897452328646,7923.549345530539
308.3400905899122,36.93345163667976,7969.677939463671
312.6295285281911,37.30960534448699,8009.432494389019
316.978638492223,37.67311159899769,8051.893235942408
321.3882506025758,38.04887675532981,8100.806417093057
325.8592065279448,38.41711611657079,8143.828827678846
330.3923596458033,38.77238673281222,8195.428176630676
334.9885752052875,39.14345451295326,8242.865616237334
339.6487304923489,39.50363877774478,8292.137708531825
344.3737149972014,39.88088058863244,8344.567950964414
349.1644305841007,40.24047146237736,8396.123097876527
354.0217916634842,40.6341864614685,8449.746022217681
358.9467253665053,40.98897256404408,8500.072257438434
363.9401717219967,41.35141917160639,8556.437983449119
369.0030838358947,41.72950740698818,8613.533781023994
374.1364280731601,42.1108824775994,8672.304026102158
379.3411842422293,42.46795326048466,8729.156541491542
384.6183457820317,42.84910349598942,8787.519794052561
389.9689199516091,43.22565532070089,8850.043500225209
395.3939280223722,43.57749995435096,8914.059400406526
400.8944054730323,43.95379043461481,8975.731044351118
406.4714021872444,44.33452583230233,9044.681548266195
412.1259826540001,44.69594370513507,9112.584179743519
417.8592261708079,45.07012932442333,9178.21118162044
423.6722270497004,45.43072855865159,9247.87507948768
429.5660948261068,45.78844321842847,9318.992808264964
435.5419544706318,46.15760045082616,9391.011205464349
441.6009466037801,46.52843325525217,9464.192360975525
447.744227713668,46.87374010149008,9539.256729530485
453.9729703767645,47.23488365536866,9619.978662612553
460.2883634817018,47.58198794258964,9698.119919457158
466.6916124562007,47.95649867147479,9778.565341307276
473.1839394971518,48.31534219961022,9860.149003601511
479.7665838038982,48.66311155118593,9943.720273169443
486.4408018147632,49.02530720564851,10028.71180312715
493.207867446868,49.36566954681969,10116.98904714215
500.0690723392864,49.73537949074741,10200.7265034461
507.0257260995817,50.07923724100358,10291.37160490977
514.0791565537729,50.43122712032472,10384.75027264451
521.2307099997793,50.77492420563205,10476.48727571636
528.4817514643895,51.10773691700408,10573.37580037807
535.8336649638065,51.44778478455513,10669.71565342382
543.2878537678167,51.7903965307745,10770.86350786804
550.8457406676334,52.12358188124674,10871.91088228358
558.5087682474679,52.46055795800939,10975.22618531286
566.278399159876,52.8026525706256,11078.37070203365
574.1561164049384,53.13483044561088,11184.95402929185
582.1434236133214,53.46618850707799,11292.53475423894
590.2418453332774,53.78552137557088,11405.4578087542
598.4529273216381,54.11023460026554,11517.84634666118
606.7782368388544,54.41016082675694,11636.41248182538
615.2193629481419,54.73656859341298,11752.76997240044
623.7779168187877,55.05944393025776,11871.37361087659
632.4555320336763,55.36407511231201,11991.22672707318
641.2538649010935,55.68307607066984,12115.40978762344
650.1745947708691,55.99026339466449,12241.51597618928
659.2194243549159,56.28588607480103,12371.86247148748
668.3900800522289,56.59116627785478,12502.38553227363
677.6883122784055,56.88638627484944,12637.22397656365
687.1158957997496,57.16843749300055,12774.94334767334
696.674630072024,57.47248430596557,12911.46269281364
706.3663395839144,57.76760518621745,13049.52913824481
716.1928742052725,58.04138079665113,13191.99097703872
726.1561095402031,58.33624304755217,13339.7584525701
736.2579472850633,58.61311757784183,13487.74374679696
746.5003155914417,58.87102144789245,13640.02449232442
756.8851694341871,59.1505047820128,13795.16243430916
767.414490984558,59.4284348946735,13948.93781800768
778.0902899885618,59.67485189122683,14111.78984685988
788.9146041505574,59.94923653095799,14270.12050836037
799.8894995221956,60.20115565876814,14436.66364395072
811.0170708967684,60.46712618804192,14604.84021801895
822.299442209045,60.7138708814649,14776.61983766227
833.7387669406713,60.95392190590623,14952.0595488685
845.3372285312066,61.20002488036314,15131.47977278724
857.0970407948797,61.44687779782451,15307.51273399188
869.0204483431438,61.68602629734367,15491.3735513542
881.1097270131073,61.91878081872236,15678.1535990435
893.367184301927,62.14318353204729,15869.26664541338
905.7951598072423,62.37231896576228,16059.57970090358
918.3960256737379,62.59287548374733,16258.2329045006
931.1721870459187,62.81455797554656,16458.12178421408
944.1260825271819,63.0236234837682,16663.86978395862
957.2601846452776,63.24513109559319,16868.57605340449
970.5770003242429,63.44617300589688,17081.11805821033
984.0790713629018,63.64610428526115,17295.04092638681
997.7689749200243,63.85106795995189,17511.33086582247
1011.649324006228,64.03846778192482,17737.04680560219
1025.72276798273,64.23598833131491,17961.37372158793
1039.991993067032,64.42246756200467,18193.27882326499
1054.459722845645,64.61580109664156,18424.47815530203
1069.128718793943,64.79510134262466,18662.71515441775
1084.001780803248,64.97594240603448,18904.76045584333
1099.081747715249,65.144557691904,19153.55927506237
1114.37149786386,65.31427345986391,19401.90878699553
1129.873949624605,65.47997508564052,19658.66447024964
1145.592061971658,65.63666512863435,19917.47760407733
1161.528835042624,65.80324414982306,20180.9583943316
1177.687310711178,65.95907365836381,20449.09295450789
1194.070573167674,66.09587703270068,20724.91811356722
1210.681749507827,66.24756832769482,21004.96368900755
1227.524010329588,66.39039134013098,21287.49168992693
1244.600570338319,66.52658155066109,21577.88157943925
1261.914688960387,66.66039100618565,21870.35278026854
1279.469670965296,66.78672061735723,22171.30964922324
1297.268867096477,66.91426573170773,22474.8985974319
1315.315674710841,67.03289228431409,22783.98115509758
1333.613538427244,67.14756753064995,23102.31548386671
1352.165950783964,67.26291334715162,23422.95703879881
1370.976452905323,67.36610340236291,23752.27080453434
1390.048635177594,67.46813794222986,24085.84772110635
1409.386137934294,67.56581571284498,24422.3901834164
1428.992652151027,67.67082026716203,24771.62215308179
1448.87192014998,67.7587146299141,25122.78417417335
1469.02773631423,67.84770419541205,25481.67030381611
1489.463947811978,67.93245805145165,25846.75974437884
1510.184455330868,68.00826729739146,26219.42780272595
1531.193213822513,68.08742306548901,26595.76116753274
1552.494233257384,68.14847229420701,26985.09538105777
1574.091579390198,68.22061810717878,27377.01173060514
1595.989374535954,68.26811978353595,27777.94151489364
1618.191798356765,68.3286132154271,28185.81002401624
1640.703088659637,68.38088851329975,28604.82886535247
1663.527542205343,68.4297947698275,29030.89714982194
1686.669515528551,68.46540970980472,29465.31959970979
1710.133425769367,68.50690056843092,29903.02277530284
1733.923751516434,68.53235229678852,30358.06007594693
1758.045033661769,68.56963590488103,30814.16629196639
1782.501876267492,68.58496501510179,31283.36068742607
1807.298947444604,68.60327695541935,31762.64989936204
1832.440980244,68.61253609279798,32253.99575850414
1857.932773559874,68.61758280498849,32750.39799123504
1883.779193045684,68.62168235506519,33257.36082962947
1909.985172042873,68.62049916425555,33772.78862294354
1936.555712522499,68.60883049316418,34303.24798150919
1963.49588603997,68.59015634278225,34844.21356057022
1990.810834703055,68.57813670186228,35392.16386979858
2018.50577215337,68.54319291288191,35956.97681250317
2046.58598456151,68.51550297529916,36535.7390226227
2075.056831636026,68.47947663702374,37123.13107082686
2103.923747646447,68.43448742622591,37725.60549473552
2133.192242460517,68.3892630557194,38337.27399221525
2162.867902595877,68.32675318290259,38969.49507630656
2192.956392286371,68.26504104497531,39605.38427763151
2223.463454563184,68.19865174278473,40263.64865000804
2254.394912351022,68.12425191535547,40933.18955217447
2285.756669579545,68.04196932334639,41622.02342091204
2317.554712310252,67.95297191426805,42326.77547317306
2349.795109879059,67.85272395596272,43044.61501865433
2382.48401605475,67.74875089846415,43780.38260368659
2415.62767021356,67.63635727269403,44535.45284183702
2449.232398530097,67.51749749923378,45305.72062332855
2483.304615184822,67.38656301997575,46098.55732605045
2517.850823588335,67.25669497695363,46908.39821540253
2552.877617622687,67.11456025043137,47736.0387437435
2588.391682899972,66.95598273130133,48593.90217562583
