Freq.	V(out)
1.00000000000000e+01	(-7.85394862590933e+00dB,-2.57674154547904e-02°)
1.02329299228075e+01	(-7.85394866712226e+00dB,-2.63676155808534e-02°)
1.04712854805090e+01	(-7.85394871027749e+00dB,-2.69817961578679e-02°)
1.07151930523761e+01	(-7.85394875546655e+00dB,-2.76102828319442e-02°)
1.09647819614319e+01	(-7.85394880278532e+00dB,-2.82534088344346e-02°)
1.12201845430196e+01	(-7.85394885233415e+00dB,-2.89115151586142e-02°)
1.14815362149688e+01	(-7.85394890421815e+00dB,-2.95849507404768e-02°)
1.17489755493953e+01	(-7.85394895854736e+00dB,-3.02740726437421e-02°)
1.20226443461741e+01	(-7.85394901543703e+00dB,-3.09792462491721e-02°)
1.23026877081238e+01	(-7.85394907500782e+00dB,-3.17008454482971e-02°)
1.25892541179417e+01	(-7.85394913738610e+00dB,-3.24392528416541e-02°)
1.28824955169313e+01	(-7.85394920270418e+00dB,-3.31948599416416e-02°)
1.31825673855641e+01	(-7.85394927110060e+00dB,-3.39680673801010e-02°)
1.34896288259165e+01	(-7.85394934272044e+00dB,-3.47592851207309e-02°)
1.38038426460288e+01	(-7.85394941771562e+00dB,-3.55689326764508e-02°)
1.41253754462275e+01	(-7.85394949624521e+00dB,-3.63974393318261e-02°)
1.44543977074593e+01	(-7.85394957847579e+00dB,-3.72452443706746e-02°)
1.47910838816821e+01	(-7.85394966458177e+00dB,-3.81127973089740e-02°)
1.51356124843621e+01	(-7.85394975474581e+00dB,-3.90005581331940e-02°)
1.54881661891248e+01	(-7.85394984915914e+00dB,-3.99089975441799e-02°)
1.58489319246111e+01	(-7.85394994802203e+00dB,-4.08385972067161e-02°)
1.62181009735893e+01	(-7.85395005154418e+00dB,-4.17898500049027e-02°)
1.65958690743756e+01	(-7.85395015994518e+00dB,-4.27632603034797e-02°)
1.69824365246174e+01	(-7.85395027345496e+00dB,-4.37593442152380e-02°)
1.73780082874937e+01	(-7.85395039231428e+00dB,-4.47786298746587e-02°)
1.77827941003892e+01	(-7.85395051677527e+00dB,-4.58216577179252e-02°)
1.81970085860998e+01	(-7.85395064710192e+00dB,-4.68889807694577e-02°)
1.86208713666287e+01	(-7.85395078357068e+00dB,-4.79811649351209e-02°)
1.90546071796325e+01	(-7.85395092647100e+00dB,-4.90987893022605e-02°)
1.94984459975804e+01	(-7.85395107610600e+00dB,-5.02424464467283e-02°)
1.99526231496888e+01	(-7.85395123279308e+00dB,-5.14127427470572e-02°)
2.04173794466953e+01	(-7.85395139686458e+00dB,-5.26102987059541e-02°)
2.08929613085404e+01	(-7.85395156866853e+00dB,-5.38357492792801e-02°)
2.13796208950223e+01	(-7.85395174856935e+00dB,-5.50897442126925e-02°)
2.18776162394955e+01	(-7.85395193694862e+00dB,-5.63729483861274e-02°)
2.23872113856834e+01	(-7.85395213420592e+00dB,-5.76860421663050e-02°)
2.29086765276777e+01	(-7.85395234075967e+00dB,-5.90297217674447e-02°)
2.34422881531992e+01	(-7.85395255704798e+00dB,-6.04046996203805e-02°)
2.39883291901949e+01	(-7.85395278352964e+00dB,-6.18117047502740e-02°)
2.45470891568503e+01	(-7.85395302068503e+00dB,-6.32514831631224e-02°)
2.51188643150958e+01	(-7.85395326901719e+00dB,-6.47247982412688e-02°)
2.57039578276886e+01	(-7.85395352905288e+00dB,-6.62324311481232e-02°)
2.63026799189538e+01	(-7.85395380134366e+00dB,-6.77751812423088e-02°)
2.69153480392691e+01	(-7.85395408646709e+00dB,-6.93538665014524e-02°)
2.75422870333816e+01	(-7.85395438502794e+00dB,-7.09693239558451e-02°)
2.81838293126445e+01	(-7.85395469765952e+00dB,-7.26224101322011e-02°)
2.88403150312660e+01	(-7.85395502502494e+00dB,-7.43140015077506e-02°)
2.95120922666638e+01	(-7.85395536781860e+00dB,-7.60449949749078e-02°)
3.01995172040201e+01	(-7.85395572676759e+00dB,-7.78163083167586e-02°)
3.09029543251359e+01	(-7.85395610263330e+00dB,-7.96288806936220e-02°)
3.16227766016838e+01	(-7.85395649621298e+00dB,-8.14836731409405e-02°)
3.23593656929628e+01	(-7.85395690834146e+00dB,-8.33816690787655e-02°)
3.31131121482591e+01	(-7.85395733989291e+00dB,-8.53238748331054e-02°)
3.38844156139202e+01	(-7.85395779178271e+00dB,-8.73113201694142e-02°)
3.46736850452531e+01	(-7.85395826496937e+00dB,-8.93450588385017e-02°)
3.54813389233575e+01	(-7.85395876045658e+00dB,-9.14261691351561e-02°)
3.63078054770101e+01	(-7.85395927929531e+00dB,-9.35557544697719e-02°)
3.71535229097172e+01	(-7.85395982258610e+00dB,-9.57349439532895e-02°)
3.80189396320561e+01	(-7.85396039148132e+00dB,-9.79648929957522e-02°)
3.89045144994280e+01	(-7.85396098718766e+00dB,-1.00246783918801e-01°)
3.98107170553497e+01	(-7.85396161096870e+00dB,-1.02581826582428e-01°)
4.07380277804112e+01	(-7.85396226414752e+00dB,-1.04971259026325e-01°)
4.16869383470335e+01	(-7.85396294810962e+00dB,-1.07416348126158e-01°)
4.26579518801592e+01	(-7.85396366430574e+00dB,-1.09918390265127e-01°)
4.36515832240165e+01	(-7.85396441425502e+00dB,-1.12478712021153e-01°)
4.46683592150962e+01	(-7.85396519954818e+00dB,-1.15098670870070e-01°)
4.57088189614874e+01	(-7.85396602185092e+00dB,-1.17779655905180e-01°)
4.67735141287197e+01	(-7.85396688290742e+00dB,-1.20523088573561e-01°)
4.78630092322638e+01	(-7.85396778454408e+00dB,-1.23330423429516e-01°)
4.89778819368445e+01	(-7.85396872867336e+00dB,-1.26203148905556e-01°)
5.01187233627271e+01	(-7.85396971729787e+00dB,-1.29142788101330e-01°)
5.12861383991364e+01	(-7.85397075251458e+00dB,-1.32150899590924e-01°)
5.24807460249772e+01	(-7.85397183651928e+00dB,-1.35229078248936e-01°)
5.37031796370252e+01	(-7.85397297161126e+00dB,-1.38378956095793e-01°)
5.49540873857623e+01	(-7.85397416019816e+00dB,-1.41602203162725e-01°)
5.62341325190348e+01	(-7.85397540480108e+00dB,-1.44900528376883e-01°)
5.75439937337156e+01	(-7.85397670805995e+00dB,-1.48275680467042e-01°)
5.88843655355588e+01	(-7.85397807273910e+00dB,-1.51729448890389e-01°)
6.02559586074357e+01	(-7.85397950173314e+00dB,-1.55263664780871e-01°)
6.16595001861481e+01	(-7.85398099807309e+00dB,-1.58880201919612e-01°)
6.30957344480192e+01	(-7.85398256493281e+00dB,-1.62580977727902e-01°)
6.45654229034654e+01	(-7.85398420563575e+00dB,-1.66367954283295e-01°)
6.60693448007595e+01	(-7.85398592366198e+00dB,-1.70243139359345e-01°)
6.76082975391980e+01	(-7.85398772265555e+00dB,-1.74208587489520e-01°)
6.91830970918935e+01	(-7.85398960643229e+00dB,-1.78266401055875e-01°)
7.07945784384136e+01	(-7.85399157898781e+00dB,-1.82418731403041e-01°)
7.24435960074988e+01	(-7.85399364450605e+00dB,-1.86667779978122e-01°)
7.41310241300916e+01	(-7.85399580736811e+00dB,-1.91015799497105e-01°)
7.58577575029182e+01	(-7.85399807216156e+00dB,-1.95465095138394e-01°)
7.76247116628690e+01	(-7.85400044369018e+00dB,-2.00018025764093e-01°)
7.94328234724279e+01	(-7.85400292698411e+00dB,-2.04677005169691e-01°)
8.12830516164097e+01	(-7.85400552731055e+00dB,-2.09444503362792e-01°)
8.31763771102669e+01	(-7.85400825018494e+00dB,-2.14323047871584e-01°)
8.51138038202374e+01	(-7.85401110138260e+00dB,-2.19315225083708e-01°)
8.70963589956078e+01	(-7.85401408695108e+00dB,-2.24423681616256e-01°)
8.91250938133743e+01	(-7.85401721322286e+00dB,-2.29651125717603e-01°)
9.12010839355907e+01	(-7.85402048682887e+00dB,-2.35000328701818e-01°)
9.33254300796988e+01	(-7.85402391471255e+00dB,-2.40474126416394e-01°)
9.54992586021433e+01	(-7.85402750414450e+00dB,-2.46075420744089e-01°)
9.77237220955808e+01	(-7.85403126273798e+00dB,-2.51807181139638e-01°)
9.99999999999997e+01	(-7.85403519846504e+00dB,-2.57672446202177e-01°)
1.02329299228075e+02	(-7.85403931967338e+00dB,-2.63674325284160e-01°)
1.04712854805090e+02	(-7.85404363510408e+00dB,-2.69816000137655e-01°)
1.07151930523760e+02	(-7.85404815391018e+00dB,-2.76100726598844e-01°)
1.09647819614318e+02	(-7.85405288567600e+00dB,-2.82531836311638e-01°)
1.12201845430196e+02	(-7.85405784043756e+00dB,-2.89112738491288e-01°)
1.14815362149688e+02	(-7.85406302870377e+00dB,-2.95846921728918e-01°)
1.17489755493953e+02	(-7.85406846147879e+00dB,-3.02737955837931e-01°)
1.20226443461741e+02	(-7.85407415028533e+00dB,-3.09789493743236e-01°)
1.23026877081238e+02	(-7.85408010718907e+00dB,-3.17005273414302e-01°)
1.25892541179416e+02	(-7.85408634482428e+00dB,-3.24389119843018e-01°)
1.28824955169313e+02	(-7.85409287642058e+00dB,-3.31944947067412e-01°)
1.31825673855640e+02	(-7.85409971583100e+00dB,-3.39676760242277e-01°)
1.34896288259165e+02	(-7.85410687756136e+00dB,-3.47588657757765e-01°)
1.38038426460288e+02	(-7.85411437680101e+00dB,-3.55684833407068e-01°)
1.41253754462275e+02	(-7.85412222945507e+00dB,-3.63969578604295e-01°)
1.44543977074592e+02	(-7.85413045217809e+00dB,-3.72447284653702e-01°)
1.47910838816820e+02	(-7.85413906240941e+00dB,-3.81122445071448e-01°)
1.51356124843620e+02	(-7.85414807841015e+00dB,-3.89999657961072e-01°)
1.54881661891248e+02	(-7.85415751930184e+00dB,-3.99083628443923e-01°)
1.58489319246111e+02	(-7.85416740510706e+00dB,-4.08379171145788e-01°)
1.62181009735892e+02	(-7.85417775679181e+00dB,-4.17891212741009e-01°)
1.65958690743755e+02	(-7.85418859630998e+00dB,-4.27624794555383e-01°)
1.69824365246174e+02	(-7.85419994664991e+00dB,-4.37585075229195e-01°)
1.73780082874937e+02	(-7.85421183188308e+00dB,-4.47777333441737e-01°)
1.77827941003892e+02	(-7.85422427721518e+00dB,-4.58206970698711e-01°)
1.81970085860998e+02	(-7.85423730903948e+00dB,-4.68879514183940e-01°)
1.86208713666286e+02	(-7.85425095499283e+00dB,-4.79800619676844e-01°)
1.90546071796324e+02	(-7.85426524401420e+00dB,-4.90976074537157e-01°)
1.94984459975804e+02	(-7.85428020640601e+00dB,-5.02411800758407e-01°)
1.99526231496887e+02	(-7.85429587389836e+00dB,-5.14113858091701e-01°)
2.04173794466952e+02	(-7.85431227971631e+00dB,-5.26088447241405e-01°)
2.08929613085403e+02	(-7.85432945865021e+00dB,-5.38341913134320e-01°)
2.13796208950222e+02	(-7.85434744712949e+00dB,-5.50880748263997e-01°)
2.18776162394954e+02	(-7.85436628329982e+00dB,-5.63711596111884e-01°)
2.23872113856833e+02	(-7.85438600710395e+00dB,-5.76841254647003e-01°)
2.29086765276776e+02	(-7.85440666036633e+00dB,-5.90276679905917e-01°)
2.34422881531991e+02	(-7.85442828688171e+00dB,-6.04024989654749e-01°)
2.39883291901948e+02	(-7.85445093250793e+00dB,-6.18093467135098e-01°)
2.45470891568502e+02	(-7.85447464526307e+00dB,-6.32489564895675e-01°)
2.51188643150957e+02	(-7.85449947542716e+00dB,-6.47220908711571e-01°)
2.57039578276885e+02	(-7.85452547564869e+00dB,-6.62295301593071e-01°)
2.63026799189537e+02	(-7.85455270105607e+00dB,-6.77720727885971e-01°)
2.69153480392690e+02	(-7.85458120937445e+00dB,-6.93505357465408e-01°)
2.75422870333816e+02	(-7.85461106104791e+00dB,-7.09657550025228e-01°)
2.81838293126444e+02	(-7.85464231936748e+00dB,-7.26185859464970e-01°)
2.88403150312659e+02	(-7.85467505060513e+00dB,-7.43099038376574e-01°)
2.95120922666637e+02	(-7.85470932415410e+00dB,-7.60406042632951e-01°)
3.01995172040200e+02	(-7.85474521267577e+00dB,-7.78116036080627e-01°)
3.09029543251358e+02	(-7.85478279225350e+00dB,-7.96238395338641e-01°)
3.16227766016837e+02	(-7.85482214255365e+00dB,-8.14782714705997e-01°)
3.23593656929627e+02	(-7.85486334699417e+00dB,-8.33758811179940e-01°)
3.31131121482590e+02	(-7.85490649292115e+00dB,-8.53176729587402e-01°)
3.38844156139201e+02	(-7.85495167179361e+00dB,-8.73046747831980e-01°)
3.46736850452530e+02	(-7.85499897937701e+00dB,-8.93379382258864e-01°)
3.54813389233574e+02	(-7.85504851594582e+00dB,-9.14185393140145e-01°)
3.63078054770100e+02	(-7.85510038649560e+00dB,-9.35475790282984e-01°)
3.71535229097171e+02	(-7.85515470096509e+00dB,-9.57261838763163e-01°)
3.80189396320559e+02	(-7.85521157446864e+00dB,-9.79555064786546e-01°)
3.89045144994279e+02	(-7.85527112753958e+00dB,-1.00236726168105e+00°)
3.98107170553495e+02	(-7.85533348638504e+00dB,-1.02571049602169e+00°)
4.07380277804111e+02	(-7.85539878315268e+00dB,-1.04959711389146e+00°)
4.16869383470333e+02	(-7.85546715620996e+00dB,-1.07403974728046e+00°)
4.26579518801591e+02	(-7.85553875043647e+00dB,-1.09905132062637e+00°)
4.36515832240164e+02	(-7.85561371752997e+00dB,-1.12464505749849e+00°)
4.46683592150961e+02	(-7.85569221632680e+00dB,-1.15083448742859e+00°)
4.57088189614873e+02	(-7.85577441313723e+00dB,-1.17763345289094e+00°)
4.67735141287196e+02	(-7.85586048209664e+00dB,-1.20505611643456e+00°)
4.78630092322636e+02	(-7.85595060553299e+00dB,-1.23311696797028e+00°)
4.89778819368444e+02	(-7.85604497435161e+00dB,-1.26183083221568e+00°)
5.01187233627270e+02	(-7.85614378843790e+00dB,-1.29121287630044e+00°)
5.12861383991362e+02	(-7.85624725707896e+00dB,-1.32127861753513e+00°)
5.24807460249770e+02	(-7.85635559940483e+00dB,-1.35204393134619e+00°)
5.37031796370250e+02	(-7.85646904485046e+00dB,-1.38352505937994e+00°)
5.49540873857622e+02	(-7.85658783363917e+00dB,-1.41573861777838e+00°)
5.62341325190346e+02	(-7.85671221728871e+00dB,-1.44870160562965e+00°)
5.75439937337154e+02	(-7.85684245914103e+00dB,-1.48243141359591e+00°)
5.88843655355586e+02	(-7.85697883491660e+00dB,-1.51694583272136e+00°)
6.02559586074355e+02	(-7.85712163329473e+00dB,-1.55226306342312e+00°)
6.16595001861479e+02	(-7.85727115652088e+00dB,-1.58840172466771e+00°)
6.30957344480190e+02	(-7.85742772104226e+00dB,-1.62538086333567e+00°)
6.45654229034652e+02	(-7.85759165817302e+00dB,-1.66321996377695e+00°)
6.60693448007592e+02	(-7.85776331479042e+00dB,-1.70193895755956e+00°)
6.76082975391978e+02	(-7.85794305406337e+00dB,-1.74155823341386e+00°)
6.91830970918933e+02	(-7.85813125621478e+00dB,-1.78209864737491e+00°)
7.07945784384134e+02	(-7.85832831931944e+00dB,-1.82358153312499e+00°)
7.24435960074986e+02	(-7.85853466013875e+00dB,-1.86602871253850e+00°)
7.41310241300914e+02	(-7.85875071499435e+00dB,-1.90946250643122e+00°)
7.58577575029180e+02	(-7.85897694068214e+00dB,-1.95390574551566e+00°)
7.76247116628688e+02	(-7.85921381542860e+00dB,-1.99938178156434e+00°)
7.94328234724277e+02	(-7.85946183989144e+00dB,-2.04591449878236e+00°)
8.12830516164095e+02	(-7.85972153820647e+00dB,-2.09352832539058e+00°)
8.31763771102666e+02	(-7.85999345908277e+00dB,-2.14224824542058e+00°)
8.51138038202372e+02	(-7.86027817694849e+00dB,-2.19209981072209e+00°)
8.70963589956076e+02	(-7.86057629314937e+00dB,-2.24310915318357e+00°)
8.91250938133741e+02	(-7.86088843720252e+00dB,-2.29530299716612e+00°)
9.12010839355905e+02	(-7.86121526810782e+00dB,-2.34870867215076e+00°)
9.33254300796986e+02	(-7.86155747571952e+00dB,-2.40335412559859e+00°)
9.54992586021431e+02	(-7.86191578218091e+00dB,-2.45926793602313e+00°)
9.77237220955805e+02	(-7.86229094342459e+00dB,-2.51647932627356e+00°)
9.99999999999994e+02	(-7.86268375074145e+00dB,-2.57501817702728e+00°)
1.02329299228075e+03	(-7.86309503242137e+00dB,-2.63491504048960e+00°)
1.04712854805089e+03	(-7.86352565546871e+00dB,-2.69620115429785e+00°)
1.07151930523760e+03	(-7.86397652739601e+00dB,-2.75890845562674e+00°)
1.09647819614318e+03	(-7.86444859809927e+00dB,-2.82306959549096e+00°)
1.12201845430196e+03	(-7.86494286181832e+00dB,-2.88871795324052e+00°)
1.14815362149688e+03	(-7.86546035918607e+00dB,-2.95588765124355e+00°)
1.17489755493952e+03	(-7.86600217937043e+00dB,-3.02461356975032e+00°)
1.20226443461741e+03	(-7.86656946231297e+00dB,-3.09493136193166e+00°)
1.23026877081237e+03	(-7.86716340106833e+00dB,-3.16687746908387e+00°)
1.25892541179416e+03	(-7.86778524424893e+00dB,-3.24048913599107e+00°)
1.28824955169313e+03	(-7.86843629857910e+00dB,-3.31580442643534e+00°)
1.31825673855640e+03	(-7.86911793156368e+00dB,-3.39286223884319e+00°)
1.34896288259165e+03	(-7.86983157427554e+00dB,-3.47170232205627e+00°)
1.38038426460288e+03	(-7.87057872426717e+00dB,-3.55236529121250e+00°)
1.41253754462275e+03	(-7.87136094861151e+00dB,-3.63489264372257e+00°)
1.44543977074592e+03	(-7.87217988707727e+00dB,-3.71932677532501e+00°)
1.47910838816820e+03	(-7.87303725544422e+00dB,-3.80571099620173e+00°)
1.51356124843620e+03	(-7.87393484896431e+00dB,-3.89408954713385e+00°)
1.54881661891247e+03	(-7.87487454597429e+00dB,-3.98450761567578e+00°)
1.58489319246110e+03	(-7.87585831166604e+00dB,-4.07701135232378e+00°)
1.62181009735892e+03	(-7.87688820202074e+00dB,-4.17164788665263e+00°)
1.65958690743755e+03	(-7.87796636791340e+00dB,-4.26846534339215e+00°)
1.69824365246173e+03	(-7.87909505939430e+00dB,-4.36751285841250e+00°)
1.73780082874936e+03	(-7.88027663015418e+00dB,-4.46884059458482e+00°)
1.77827941003891e+03	(-7.88151354218007e+00dB,-4.57249975748078e+00°)
1.81970085860997e+03	(-7.88280837060893e+00dB,-4.67854261087177e+00°)
1.86208713666286e+03	(-7.88416380878651e+00dB,-4.78702249198510e+00°)
1.90546071796323e+03	(-7.88558267353870e+00dB,-4.89799382647137e+00°)
1.94984459975803e+03	(-7.88706791066316e+00dB,-5.01151214303349e+00°)
1.99526231496887e+03	(-7.88862260064883e+00dB,-5.12763408766392e+00°)
2.04173794466952e+03	(-7.89024996463140e+00dB,-5.24641743743284e+00°)
2.08929613085403e+03	(-7.89195337059245e+00dB,-5.36792111376542e+00°)
2.13796208950222e+03	(-7.89373633981072e+00dB,-5.49220519514201e+00°)
2.18776162394954e+03	(-7.89560255357322e+00dB,-5.61933092915003e+00°)
2.23872113856832e+03	(-7.89755586015484e+00dB,-5.74936074381143e+00°)
2.29086765276776e+03	(-7.89960028207432e+00dB,-5.88235825810405e+00°)
2.34422881531991e+03	(-7.90174002363514e+00dB,-6.01838829158953e+00°)
2.39883291901947e+03	(-7.90397947875917e+00dB,-6.15751687305445e+00°)
2.45470891568501e+03	(-7.90632323912153e+00dB,-6.29981124806508e+00°)
2.51188643150956e+03	(-7.90877610259442e+00dB,-6.44533988532929e+00°)
2.57039578276885e+03	(-7.91134308200788e+00dB,-6.59417248175251e+00°)
2.63026799189536e+03	(-7.91402941423498e+00dB,-6.74637996606678e+00°)
2.69153480392690e+03	(-7.91684056960891e+00dB,-6.90203450090490e+00°)
2.75422870333815e+03	(-7.91978226167883e+00dB,-7.06120948318302e+00°)
2.81838293126443e+03	(-7.92286045731107e+00dB,-7.22397954264708e+00°)
2.88403150312658e+03	(-7.92608138714188e+00dB,-7.39042053842954e+00°)
2.95120922666636e+03	(-7.92945155638707e+00dB,-7.56060955345379e+00°)
3.01995172040199e+03	(-7.93297775601351e+00dB,-7.73462488651433e+00°)
3.09029543251357e+03	(-7.93666707427645e+00dB,-7.91254604185067e+00°)
3.16227766016836e+03	(-7.94052690862587e+00dB,-8.09445371602346e+00°)
3.23593656929626e+03	(-7.94456497798396e+00dB,-8.28042978189017e+00°)
3.31131121482589e+03	(-7.94878933539493e+00dB,-8.47055726946768e+00°)
3.38844156139200e+03	(-7.95320838104657e+00dB,-8.66492034345777e+00°)
3.46736850452529e+03	(-7.95783087566210e+00dB,-8.86360427720052e+00°)
3.54813389233573e+03	(-7.96266595425892e+00dB,-9.06669542280937e+00°)
3.63078054770099e+03	(-7.96772314026911e+00dB,-9.27428117723006e+00°)
3.71535229097170e+03	(-7.97301236001453e+00dB,-9.48644994395421e+00°)
3.80189396320558e+03	(-7.97854395752755e+00dB,-9.70329109010680e+00°)
3.89045144994278e+03	(-7.98432870970525e+00dB,-9.92489489861550e+00°)
3.98107170553494e+03	(-7.99037784178328e+00dB,-1.01513525151584e+01°)
4.07380277804110e+03	(-7.99670304311184e+00dB,-1.03827558895758e+01°)
4.16869383470332e+03	(-8.00331648321359e+00dB,-1.06191977114215e+01°)
4.26579518801589e+03	(-8.01023082809979e+00dB,-1.08607713393182e+01°)
4.36515832240162e+03	(-8.01745925681713e+00dB,-1.11075707237734e+01°)
4.46683592150960e+03	(-8.02501547819384e+00dB,-1.13596903231026e+01°)
4.57088189614871e+03	(-8.03291374774948e+00dB,-1.16172250120996e+01°)
4.67735141287194e+03	(-8.04116888472780e+00dB,-1.18802699830886e+01°)
4.78630092322634e+03	(-8.04979628920757e+00dB,-1.21489206389846e+01°)
4.89778819368442e+03	(-8.05881195924068e+00dB,-1.24232724779905e+01°)
5.01187233627268e+03	(-8.06823250796134e+00dB,-1.27034209695537e+01°)
5.12861383991361e+03	(-8.07807518060402e+00dB,-1.29894614212077e+01°)
5.24807460249768e+03	(-8.08835787136195e+00dB,-1.32814888359299e+01°)
5.37031796370248e+03	(-8.09909914001064e+00dB,-1.35795977596492e+01°)
5.49540873857620e+03	(-8.11031822821466e+00dB,-1.38838821185507e+01°)
5.62341325190344e+03	(-8.12203507542810e+00dB,-1.41944350458350e+01°)
5.75439937337152e+03	(-8.13427033429185e+00dB,-1.45113486976100e+01°)
5.88843655355584e+03	(-8.14704538542286e+00dB,-1.48347140576121e+01°)
6.02559586074353e+03	(-8.16038235148271e+00dB,-1.51646207304809e+01°)
6.16595001861477e+03	(-8.17430411040430e+00dB,-1.55011567233460e+01°)
6.30957344480188e+03	(-8.18883430764733e+00dB,-1.58444082155160e+01°)
